(1741076322.610236) can0 18FF0B00#BE027D7877782454
(1741076322.610812) can0 18FF1800#000016FFFFFFFFFC
(1741076322.611381) can0 18FE0300#0F27042718270000
(1741076322.611958) can0 18FE0400#E503E7031B040000
(1741076322.614445) can0 0CFE00F3#00361E2708271127
(1741076322.615001) can0 0CFE01F3#5B7BE9031B04E603
(1741076322.620250) can0 18FF1800#000016FFFFFFFFFC
(1741076322.620823) can0 18FE0300#0F27042719270000
(1741076322.621398) can0 18FE0400#E503E7031B040000
(1741076322.625584) can0 0CFE00F3#00361A2706270727
(1741076322.626138) can0 0CFE01F3#5B7BE9031B04E603
(1741076322.626705) can0 0CFE05F3#1DFE8000D2011027
(1741076322.627258) can0 0CFE09F3#7703C4096F063016
(1741076322.627825) can0 0CFE10F3#0300363D00000000
(1741076322.628388) can0 0CFE02F3#4702050248000000
(1741076322.628969) can0 18FF0220#F004FFFFFFFFFDFF
(1741076322.629542) can0 18FF2701#0000007B00003033
(1741076322.630116) can0 18FF0020#FFFF03030800C4FF
(1741076322.630678) can0 18FF0400#73030B9600F31802
(1741076322.631257) can0 18FF0220#F00CFF003CFFFDFF
(1741076322.631817) can0 18FF0B00#BF027D7877782454
(1741076322.632408) can0 18FF1800#000016FFFFFFFFFC
(1741076322.632973) can0 18FE0300#0E27042719270000
(1741076322.633549) can0 18FE0400#E503E7031B040000
(1741076322.635444) can0 0CFE00F3#00361A2705271327
(1741076322.636002) can0 0CFE01F3#5B7BE9031B04E603
(1741076322.640216) can0 18FF0C00#0000A70000FFFFF0
(1741076322.640814) can0 18FF1800#000016FFFFFFFFFC
(1741076322.641384) can0 18FE0300#0F27042719270000
(1741076322.641953) can0 18FE0400#E503E7031B040000
(1741076322.645980) can0 18FF2701#0000007A00003033
(1741076322.646525) can0 0CFE00F3#0036182704270927
(1741076322.647074) can0 0CFE01F3#5B7BE9031B04E603
(1741076322.650203) can0 18FF2A00#3000000000000000
(1741076322.650787) can0 18FFA100#00600A0000005220
(1741076322.651382) can0 18FF0500#00100000000000C0
(1741076322.651944) can0 18FF0600#16265C7B1626E803
(1741076322.652526) can0 18FF0800#4000001027000F7B
(1741076322.653106) can0 18FF0900#28285F062830801B
(1741076322.653674) can0 18FF0B00#BF027D7877782454
(1741076322.654263) can0 18FF1800#000016FFFFFFFFFC
(1741076322.654850) can0 18FF3900#0600000300000000
(1741076322.655421) can0 18FF0A00#64FF8811B80BFFFF
(1741076322.655903) can0 18FF0E00#00800C0000
(1741076322.656472) can0 18FE0300#0E27042718270000
(1741076322.657043) can0 18FE0400#E503E7031B040000
(1741076322.657594) can0 0CFE00F3#00361727EF261527
(1741076322.658148) can0 0CFE01F3#5B7BE9031B04E603
(1741076322.660267) can0 18FF1800#000016FFFFFFFFFC
(1741076322.660838) can0 18FE0300#0F27022718270000
(1741076322.661415) can0 18FE0400#E503E7031B040000
(1741076322.663266) can0 18FF0D00#7A3E96662438C7F0
(1741076322.665613) can0 726#04
(1741076322.666198) can0 18FF2701#0000007A00003033
(1741076322.668434) can0 0CFE00F3#0036192708271727
(1741076322.669018) can0 0CFE01F3#5B7BE9031B04E603
(1741076322.670270) can0 18FF0B00#BF027D7877782454
(1741076322.670863) can0 18FF1800#000016FFFFFFFFFC
(1741076322.671438) can0 18FE0300#0F27002718270000
(1741076322.672011) can0 18FE0400#E503E7031B040000
(1741076322.679444) can0 0CFE00F3#0036122703270E27
(1741076322.680000) can0 0CFE01F3#5B7BE9031B04E603
(1741076322.680568) can0 0CFE05F3#1DFE8000D2011027
(1741076322.681156) can0 18FF1800#000016FFFFFFFFFC
(1741076322.681728) can0 18FE0300#1027012718270000
(1741076322.682299) can0 18FE0400#E503E7031B040000
(1741076322.685933) can0 18FF2701#0000007A00003033
(1741076322.689449) can0 0CFE00F3#00361327FD260827
(1741076322.690003) can0 0CFE01F3#5B7BE9031B04E603
(1741076322.690564) can0 18FF0B00#BF027D7877782454
(1741076322.691154) can0 18FF1800#000016FFFFFFFFFC
(1741076322.691726) can0 18FE0300#1027012717270000
(1741076322.692299) can0 18FE0400#E503E7031B040000
(1741076322.700180) can0 18FF0600#16265C7B1626E803
(1741076322.700735) can0 0CFE00F3#00361F2704271127
(1741076322.701317) can0 0CFE01F3#5B7BE8031B04E603
(1741076322.701883) can0 18FF1800#000016FFFFFFFFFC
(1741076322.702450) can0 18FE0300#0F27012717270000
(1741076322.703022) can0 18FE0400#E503E7031B040000
(1741076322.705916) can0 18FF2701#0000007B00013033
(1741076322.710202) can0 18FF0B00#BF027D7877782454
(1741076322.710798) can0 18FF1800#000016FFFFFFFFFC
(1741076322.711366) can0 18FE0300#0F27012717270000
(1741076322.711915) can0 0CFE00F3#0036222706270F27
(1741076322.712470) can0 0CFE01F3#5B7BE9031B04E603
(1741076322.713060) can0 18FE0400#E503E7031B040000
(1741076322.720235) can0 18FF1800#000016FFFFFFFFFC
(1741076322.720806) can0 18FE0300#0F27022718270000
(1741076322.721380) can0 18FE0400#E503E7031B040000
(1741076322.722443) can0 0CFE00F3#00361A2700271527
(1741076322.723000) can0 0CFE01F3#5B7BE9031B04E603
(1741076322.725898) can0 18FF2701#0000007B00013033
(1741076322.727403) can0 18FF0220#F004FFFFFFFFFDFF
(1741076322.728004) can0 18FF0020#FFFF03030800C4FF
(1741076322.728584) can0 18FF0220#F00CFF003CFFFDFF
(1741076322.730238) can0 18FF0400#73030B9600F31802
(1741076322.730808) can0 18FF0B00#BE027C7877782454
(1741076322.731399) can0 18FF1800#000016FFFFFFFFFC
(1741076322.731974) can0 18FE0300#1027022718270000
(1741076322.732550) can0 18FE0400#E503E7031B040000
(1741076322.733466) can0 0CFE00F3#00361D27FE260F27
(1741076322.734020) can0 0CFE01F3#5B7BE9031B04E603
(1741076322.734584) can0 0CFE05F3#1CFE7C00DD011027
(1741076322.735132) can0 0CFE09F3#7903C4096F063116
(1741076322.735698) can0 0CFE10F3#0300363D00000000
(1741076322.736262) can0 0CFE02F3#4702050248000000
(1741076322.740204) can0 18FF0C00#0000A70000FFFFF0
(1741076322.740799) can0 18FF1800#000016FFFFFFFFFC
(1741076322.741370) can0 18FE0300#1027012719270000
(1741076322.741940) can0 18FE0400#E503E7031B040000
(1741076322.743448) can0 0CFE00F3#0036122707270A27
(1741076322.743992) can0 0CFE01F3#5B7BE9031B04E603
(1741076322.745872) can0 18FF2701#0000007B00013033
(1741076322.750208) can0 18FF0500#00100000000000C0
(1741076322.750773) can0 18FF0600#16265C7B1626E803
(1741076322.751334) can0 18FF0B00#BE027C7877782454
(1741076322.751927) can0 18FF1800#000016FFFFFFFFFC
(1741076322.752405) can0 18FF0E00#00800C0000
(1741076322.752974) can0 18FE0300#0F27022718270000
(1741076322.753547) can0 18FE0400#E503E7031B040000
(1741076322.754428) can0 0CFE00F3#0036162705271627
(1741076322.754982) can0 0CFE01F3#5B7BE9031B04E603
(1741076322.760234) can0 18FF1800#000016FFFFFFFFFC
(1741076322.760814) can0 18FE0300#1027022718270000
(1741076322.761389) can0 18FE0400#E503E7031B040000
(1741076322.764330) can0 18FF1D20#08F3FFFFFFFFFFFF
(1741076322.764943) can0 18FF0220#F004FFFFFFFFFDFF
(1741076322.765487) can0 0CFE00F3#00361527F7260727
(1741076322.766052) can0 0CFE01F3#5B7BE8031B04E603
(1741076322.766270) can0 726#04
(1741076322.766887) can0 18FF2701#0000007B00013033
(1741076322.770217) can0 18FF3000#21F2010101010101
(1741076322.770769) can0 18FF0B00#BE027C7877782414
(1741076322.771367) can0 18FF1800#000016FFFFFFFFFC
(1741076322.771930) can0 18FE0300#0F27012717270000
(1741076322.772510) can0 18FE0400#E503E7031B040000
(1741076322.776476) can0 0CFE00F3#0036102708271427
(1741076322.777007) can0 0CFE01F3#5B7BE9031B04E603
(1741076322.780250) can0 18FF1800#000016FFFFFFFFFC
(1741076322.780807) can0 18FE0300#0F27022716270000
(1741076322.781379) can0 18FE0400#E503E7031B040000
(1741076322.785837) can0 18FF2701#0000007B00013033
(1741076322.787439) can0 0CFE00F3#00361227FC261127
(1741076322.787994) can0 0CFE01F3#5B7BE9031B04E603
(1741076322.788566) can0 0CFE05F3#17FE7F00D1011027
(1741076322.790270) can0 18FF0B00#BE027D7877782414
(1741076322.790866) can0 18FF1800#000016FFFFFFFFFC
(1741076322.791429) can0 18FE0300#0F27012716270000
(1741076322.792002) can0 18FE0400#E503E7031B040000
(1741076322.797451) can0 0CFE00F3#00361A2704271127
(1741076322.797993) can0 0CFE01F3#5B7BE9031B04E603
(1741076322.800204) can0 18FF0600#16265C7B1626E803
(1741076322.800802) can0 18FF1800#000016FFFFFFFFFC
(1741076322.801372) can0 18FE0300#0F27022716270000
(1741076322.801941) can0 18FE0400#E503E7031B040000
(1741076322.805817) can0 18FF2701#0000007B00013033
(1741076322.808432) can0 0CFE00F3#0036182710271127
(1741076322.808994) can0 0CFE01F3#5B7BE9031B04E603
(1741076322.810275) can0 18FF0B00#BE027D7877782414
(1741076322.810903) can0 18FF1800#000016FFFFFFFFFC
(1741076322.811435) can0 18FE0300#0F27022716270000
(1741076322.812008) can0 18FE0400#E503E7031B040000
(1741076322.819446) can0 0CFE00F3#00361D27FE261127
(1741076322.820000) can0 0CFE01F3#5B7BE9031B04E603
(1741076322.820589) can0 18FF1800#000016FFFFFFFFFC
(1741076322.821155) can0 18FE0300#1027032716270000
(1741076322.821729) can0 18FE0400#E503E7031B040000
(1741076322.825792) can0 18FF2701#0000007A00003033
(1741076322.827655) can0 18FF0220#F004FFFFFFFFFDFF
(1741076322.828274) can0 18FF0020#FFFF03030800C4FF
(1741076322.828855) can0 18FF0220#F00CFF003CFFFDFF
(1741076322.829449) can0 18FF4020#0000FFFFFFFFFFFF
(1741076322.830295) can0 18FF0400#73030B9600F31808
(1741076322.830839) can0 0CFE00F3#00361D2706270F27
(1741076322.831395) can0 0CFE01F3#5B7BE9031B04E603
(1741076322.831963) can0 18FF0B00#BE027D7877782414
(1741076322.832554) can0 18FF1800#000016FFFFFFFFFC
(1741076322.833121) can0 18FE0300#1027032717270000
(1741076322.833695) can0 18FE0400#E503E7031B040000
(1741076322.840201) can0 18FF0C00#0000A70000FFFFF0
(1741076322.840789) can0 18FF1800#000016FFFFFFFFFC
(1741076322.841365) can0 18FE0300#1027032717270000
(1741076322.841898) can0 0CFE00F3#003619270C270E27
(1741076322.842453) can0 0CFE01F3#5B7BE9031B04E603
(1741076322.843035) can0 0CFE05F3#17FE7F00D1011027
(1741076322.843602) can0 0CFE09F3#7703C4096F063016
(1741076322.844163) can0 0CFE10F3#0300363D00000000
(1741076322.844717) can0 0CFE02F3#4802050248000000
(1741076322.845286) can0 18FE0400#E503E7031B040000
(1741076322.845853) can0 18FF2701#0000007B00003033
(1741076322.850205) can0 18FF0500#00100000000000C0
(1741076322.850771) can0 18FF0600#16265C7B1626E803
(1741076322.851341) can0 18FF0B00#BE027D7877782414
(1741076322.851891) can0 0CFE00F3#00361A2700271527
(1741076322.852448) can0 0CFE01F3#5B7BE9031B04E603
(1741076322.853037) can0 18FF1800#000016FFFFFFFFFC
(1741076322.853524) can0 18FF0E00#00800C0000
(1741076322.854084) can0 18FE0300#0F27042717270000
(1741076322.854656) can0 18FE0400#E503E7031B040000
(1741076322.860223) can0 18FF1800#000016FFFFFFFFFC
(1741076322.860800) can0 18FE0300#1027042718270000
(1741076322.861375) can0 18FE0400#E503E7031B040000
(1741076322.862425) can0 0CFE00F3#00361B2706271327
(1741076322.862979) can0 0CFE01F3#5B7BE9031B04E603
(1741076322.865406) can0 726#04
(1741076322.865995) can0 18FF2701#0000007B00013033
(1741076322.870197) can0 18FF0B00#BE027D7877782414
(1741076322.870791) can0 18FF1800#000016FFFFFFFFFC
(1741076322.871366) can0 18FE0300#1027042718270000
(1741076322.871940) can0 18FE0400#E503E7031B040000
(1741076322.873424) can0 0CFE00F3#00361E2703271427
(1741076322.873975) can0 0CFE01F3#5B7BE9031B04E603
(1741076322.880224) can0 18FF1800#000016FFFFFFFFFC
(1741076322.880803) can0 18FE0300#1027042718270000
(1741076322.881377) can0 18FE0400#E503E7031B040000
(1741076322.884424) can0 0CFE00F3#0036222703270F27
(1741076322.884979) can0 0CFE01F3#5B7BE9031B04E603
(1741076322.885724) can0 18FF2701#0000007B00003033
(1741076322.890198) can0 18FF0B00#BE027C7877782414
(1741076322.890793) can0 18FF1800#000016FFFFFFFFFC
(1741076322.891364) can0 18FE0300#1027042719270000
(1741076322.891938) can0 18FE0400#E503E7031B040000
(1741076322.895438) can0 0CFE00F3#0036182704271127
(1741076322.895994) can0 0CFE01F3#5B7BE9031B04E603
(1741076322.896554) can0 0CFE05F3#14FE7A00D6011027
(1741076322.900170) can0 18FF0600#16265C7B1626E803
(1741076322.900766) can0 18FF1800#000016FFFFFFFFFC
(1741076322.901342) can0 18FE0300#1027042719270000
(1741076322.901910) can0 18FE0400#E503E7031B040000
(1741076322.905433) can0 0CFE00F3#00361C27FE261227
(1741076322.905986) can0 0CFE01F3#5B7BE9031B04E603
(1741076322.906557) can0 18FF2701#0000007B00003033
(1741076322.910192) can0 18FF0B00#BE027C7877782414
(1741076322.910789) can0 18FF1800#000016FFFFFFFFFC
(1741076322.911360) can0 18FE0300#1027032719270000
(1741076322.911932) can0 18FE0400#E503E7031B040000
(1741076322.916425) can0 0CFE00F3#00362127F8261727
(1741076322.916982) can0 0CFE01F3#5B7BE9031B04E603
(1741076322.920221) can0 18FF1800#000016FFFFFFFFFC
(1741076322.920788) can0 18FE0300#112702271A270000
(1741076322.921363) can0 18FE0400#E503E7031B040000
(1741076322.925685) can0 18FF2701#0000007A00013033
(1741076322.927399) can0 18FF0220#F004FFFFFFFFFDFF
(1741076322.927960) can0 0CFE00F3#0036182700270D27
(1741076322.928520) can0 0CFE01F3#5B7BE8031B04E603
(1741076322.929096) can0 18FF0020#FFFF03030800C4FF
(1741076322.929677) can0 18FF0220#F00CFF003CFFFDFF
(1741076322.930284) can0 18FF0400#73030B9600F31808
(1741076322.930860) can0 18FF0B00#BE027D7877782414
(1741076322.931451) can0 18FF1800#000016FFFFFFFFFC
(1741076322.932016) can0 18FE0300#122701271A270000
(1741076322.932588) can0 18FE0400#E503E7031B040000
(1741076322.938427) can0 0CFE00F3#00361627F8261527
(1741076322.938984) can0 0CFE01F3#5B7BE9031B04E603
(1741076322.940244) can0 18FF0C00#0000A70000FFFFF0
(1741076322.940839) can0 18FF1800#000016FFFFFFFFFC
(1741076322.941405) can0 18FE0300#112701271A270000
(1741076322.941976) can0 18FE0400#E503E7031B040000
(1741076322.945666) can0 18FF2701#0000007A00013033
(1741076322.949448) can0 0CFE00F3#0036172701270C27
(1741076322.950003) can0 0CFE01F3#5B7BE9031B04E603
(1741076322.950562) can0 0CFE05F3#14FE7A00D6011027
(1741076322.951110) can0 0CFE09F3#7903C4096F063116
(1741076322.951677) can0 0CFE10F3#0300363E00000000
(1741076322.952241) can0 0CFE02F3#4702050248000000
(1741076322.952841) can0 18FF0500#00100000000000C0
(1741076322.953397) can0 18FF0600#16265C7B1626E803
(1741076322.953966) can0 18FF0B00#BE027D7877782414
(1741076322.954557) can0 18FF1800#000016FFFFFFFFFC
(1741076322.955036) can0 18FF0E00#00800C0000
(1741076322.955605) can0 18FE0300#112700271A270000
(1741076322.956178) can0 18FE0400#E503E7031B040000
(1741076322.959435) can0 0CFE00F3#00361927FB261227
(1741076322.959989) can0 0CFE01F3#5B7BE9031B04E603
(1741076322.960578) can0 18FF1800#000016FFFFFFFFFC
(1741076322.961141) can0 18FE0300#1127012719270000
(1741076322.961721) can0 18FE0400#E503E7031B040000
(1741076322.965359) can0 726#04
(1741076322.965905) can0 18FF2701#0000007A00013033
(1741076322.970230) can0 18FF0B00#BE027D7877782414
(1741076322.970747) can0 0CFE00F3#0036172709271727
(1741076322.971301) can0 0CFE01F3#5B7BE9031B04E603
(1741076322.971885) can0 18FF1800#000016FFFFFFFFFC
(1741076322.972456) can0 18FE0300#1127002719270000
(1741076322.973028) can0 18FE0400#E503E7031B040000
(1741076322.980230) can0 18FF1800#000016FFFFFFFFFC
(1741076322.980797) can0 18FE0300#1127012719270000
(1741076322.981372) can0 18FE0400#E503E7031B040000
(1741076322.981920) can0 0CFE00F3#00361B2706271927
(1741076322.982473) can0 0CFE01F3#5B7BE9031B04E603
(1741076322.985641) can0 18FF2701#0000007B00013033
(1741076322.990209) can0 18FF0B00#BE027D7877782414
(1741076322.990804) can0 18FF1800#000016FFFFFFFFFC
(1741076322.991367) can0 18FE0300#1227022719270000
(1741076322.991976) can0 18FE0400#E503E7031B040000
(1741076322.992493) can0 0CFE00F3#0036182706270F27
(1741076322.993049) can0 0CFE01F3#5B7BE9031B04E603
(1741076323.000177) can0 18FF0600#16265C7B1626E803
(1741076323.000770) can0 18FF1800#000016FFFFFFFFFC
(1741076323.001349) can0 18FE0300#1227022719270000
(1741076323.001906) can0 18FE0400#E503E7031B040000
(1741076323.003449) can0 0CFE00F3#0036192710271027
(1741076323.004004) can0 0CFE01F3#5B7BE9031B04E603
(1741076323.004568) can0 0CFE05F3#15FE7C00D9011027
(1741076323.005620) can0 18FF2701#0000007A00013033
(1741076323.010207) can0 18FF0B00#BE027D7877782414
(1741076323.010801) can0 18FF1800#000016FFFFFFFFFC
(1741076323.011365) can0 18FE0300#1227032719270000
(1741076323.011938) can0 18FE0400#E503E7031B040000
(1741076323.013431) can0 0CFE00F3#00361B2709271127
(1741076323.013987) can0 0CFE01F3#5B7BE9031B04E603
(1741076323.020183) can0 18FF3000#22F2010146020911
(1741076323.020777) can0 18FF1800#000016FFFFFFFFFC
(1741076323.021363) can0 18FE0300#1127042719270000
(1741076323.021915) can0 18FE0400#E503E7031B040000
(1741076323.024429) can0 0CFE00F3#0036192709270D27
(1741076323.024986) can0 0CFE01F3#5B7BE9031B04E603
(1741076323.025598) can0 18FF2701#0000007B00013033
(1741076323.027380) can0 18FF0220#F004FFFFFFFFFDFF
(1741076323.027975) can0 18FF0020#FFFF03030800C4FF
(1741076323.028557) can0 18FF0220#F00CFF003CFFFDFF
(1741076323.030231) can0 18FF0400#73030B9600F31808
(1741076323.030812) can0 18FF0B00#BE027D7877782414
(1741076323.031400) can0 18FF1800#000016FFFFFFFFFC
(1741076323.031969) can0 18FE0300#1127052719270000
(1741076323.032540) can0 18FE0400#E503E7031B040000
(1741076323.035429) can0 0CFE00F3#0036172706271327
(1741076323.036018) can0 0CFE01F3#5B7BE9031B04E603
(1741076323.040204) can0 18FF0C00#0000A70000FFFFF0
(1741076323.040801) can0 18FF1800#000016FFFFFFFFFC
(1741076323.041371) can0 18FE0300#1127052718270000
(1741076323.041950) can0 18FE0400#E503E7031B040000
(1741076323.045592) can0 18FF2701#0000007A00013033
(1741076323.046442) can0 0CFE00F3#00361A2700271527
(1741076323.046994) can0 0CFE01F3#5B7BE9031B04E603
(1741076323.050202) can0 18FF0500#00100000000000C0
(1741076323.050768) can0 18FF0600#16265C7B1626E803
(1741076323.051358) can0 18FF0B00#BE027D7877782414
(1741076323.051931) can0 18FF1800#000016FFFFFFFFFC
(1741076323.052405) can0 18FF0E00#00800C0000
(1741076323.052972) can0 18FE0300#1127042718270000
(1741076323.053551) can0 18FE0400#E503E7031B040000
(1741076323.057563) can0 0CFE00F3#0036182708270F27
(1741076323.058113) can0 0CFE01F3#5B7BE9031B04E603
(1741076323.058676) can0 0CFE05F3#15FE7C00D9011027
(1741076323.059224) can0 0CFE09F3#7703C4096F063116
(1741076323.059792) can0 0CFE10F3#0300363D00000000
(1741076323.060355) can0 0CFE02F3#4702050248000000
(1741076323.060945) can0 18FF1800#000016FFFFFFFFFC
(1741076323.061515) can0 18FE0300#1127052718270000
(1741076323.062087) can0 18FE0400#E503E7031B040000
(1741076323.065206) can0 726#04
(1741076323.065801) can0 18FF2701#0000007B00013033
(1741076323.067427) can0 0CFE00F3#0036192700270E27
(1741076323.067984) can0 0CFE01F3#5B7BE9031B04E603
(1741076323.070269) can0 18FF0B00#BE027D7877782414
(1741076323.070826) can0 18FF1800#000016FFFFFFFFFC
(1741076323.071393) can0 18FE0300#1127042718270000
(1741076323.071966) can0 18FE0400#E503E7031B040000
(1741076323.078424) can0 0CFE00F3#0036172708271127
(1741076323.078978) can0 0CFE01F3#5B7BE9031B04E603
(1741076323.080281) can0 18FF1800#000016FFFFFFFFFC
(1741076323.080860) can0 18FE0300#1027042718270000
(1741076323.081438) can0 18FE0400#E503E7031B040000
(1741076323.085532) can0 18FF2701#0000007B00003033
(1741076323.089422) can0 0CFE00F3#0036142706271327
(1741076323.089978) can0 0CFE01F3#5B7BE9031B04E603
(1741076323.090545) can0 18FF0B00#BE027D7877782414
(1741076323.091137) can0 18FF1800#000016FFFFFFFFFC
(1741076323.091712) can0 18FE0300#1027042718270000
(1741076323.092285) can0 18FE0400#E503E7031B040000
(1741076323.100156) can0 18FF0600#16265B7B1626E803
(1741076323.100703) can0 0CFE00F3#00361C27FD260A27
(1741076323.101262) can0 0CFE01F3#5B7BE8031B04E603
(1741076323.101850) can0 18FF1800#000016FFFFFFFFFC
(1741076323.102412) can0 18FE0300#1127052717270000
(1741076323.102985) can0 18FE0400#E503E7031B040000
(1741076323.105510) can0 18FF2701#0000007A00003033
(1741076323.110185) can0 18FF0B00#BF027D7877782414
(1741076323.110781) can0 18FF1800#000016FFFFFFFFFC
(1741076323.111357) can0 18FE0300#1027042718270000
(1741076323.111906) can0 0CFE00F3#00361C2708270A27
(1741076323.112460) can0 0CFE01F3#5B7BE9031B04E603
(1741076323.113021) can0 0CFE05F3#14FE7B00D2011027
(1741076323.113589) can0 18FE0400#E503E7031B040000
(1741076323.120218) can0 18FF1800#000016FFFFFFFFFC
(1741076323.120796) can0 18FE0300#0F27042718270000
(1741076323.121372) can0 18FE0400#E503E7031B040000
(1741076323.121918) can0 0CFE00F3#003619270B270827
(1741076323.122472) can0 0CFE01F3#5B7BE9031B04E603
(1741076323.125491) can0 18FF2701#0000007A00013033
(1741076323.127581) can0 18FF0220#F004FFFFFFFFFDFF
(1741076323.128184) can0 18FF0020#FFFF03030800C4FF
(1741076323.128802) can0 18FF0220#F00CFF003CFFFDFF
(1741076323.129394) can0 18FF4020#0000FFFFFFFFFFFF
(1741076323.130260) can0 18FF0400#73030B9600F31808
(1741076323.130846) can0 18FF0B00#BF027D7877782414
(1741076323.131442) can0 18FF1800#000016FFFFFFFFFC
(1741076323.132013) can0 18FE0300#0F27052718270000
(1741076323.132563) can0 0CFE00F3#00361C27FE260C27
(1741076323.133117) can0 0CFE01F3#5B7BE9031B04E603
(1741076323.133686) can0 18FE0400#E503E7031B040000
(1741076323.140197) can0 18FF0C00#0000A70000FFFFF0
(1741076323.140792) can0 18FF1800#000016FFFFFFFFFC
(1741076323.141363) can0 18FE0300#0E27042718270000
(1741076323.141933) can0 18FE0400#E503E7031B040000
(1741076323.143431) can0 0CFE00F3#0036252706271227
(1741076323.143986) can0 0CFE01F3#5B7BE9031B04E603
(1741076323.145470) can0 18FF2701#0000007A00013033
(1741076323.150190) can0 18FF2A00#3000000000000000
(1741076323.150783) can0 18FF0500#00100000000000C0
(1741076323.151342) can0 18FF0600#16265B7B1626E803
(1741076323.151926) can0 18FF0800#4000001027000F7B
(1741076323.152500) can0 18FF0900#28285F062830801B
(1741076323.153069) can0 18FF0B00#BF027D7877782414
(1741076323.153665) can0 18FF1800#000016FFFFFFFFFC
(1741076323.154145) can0 18FF0E00#00800C0000
(1741076323.154684) can0 0CFE00F3#0036172709271127
(1741076323.155243) can0 0CFE01F3#5B7BE9031B04E603
(1741076323.155802) can0 18FE0300#0F27052719270000
(1741076323.156374) can0 18FE0400#E503E7031B040000
(1741076323.160217) can0 18FF1800#000016FFFFFFFFFC
(1741076323.160784) can0 18FE0300#0F27052719270000
(1741076323.161360) can0 18FE0400#E503E7031B040000
(1741076323.165109) can0 726#04
(1741076323.165658) can0 0CFE00F3#00361A27FA261227
(1741076323.166213) can0 0CFE01F3#5B7BE9031B04E603
(1741076323.166774) can0 0CFE05F3#14FE7B00D2011027
(1741076323.167321) can0 0CFE09F3#7703C4096F063116
(1741076323.167888) can0 0CFE10F3#0300363D00000000
(1741076323.168451) can0 0CFE02F3#4702050248000000
(1741076323.169031) can0 18FF2701#0000007A00013033
(1741076323.170282) can0 18FF0B00#BF027D7877782414
(1741076323.170878) can0 18FF1800#000016FFFFFFFFFC
(1741076323.171446) can0 18FE0300#0F27042719270000
(1741076323.172019) can0 18FE0400#E503E7031B040000
(1741076323.175426) can0 0CFE00F3#00361F2704271427
(1741076323.175983) can0 0CFE01F3#5B7BE9031B04E603
(1741076323.180229) can0 18FF1800#000016FFFFFFFFFC
(1741076323.180798) can0 18FE0300#0F27042719270000
(1741076323.181384) can0 18FE0400#E503E7031B040000
(1741076323.185448) can0 18FF2701#0000007B00013033
(1741076323.186424) can0 0CFE00F3#00361C2708271227
(1741076323.186977) can0 0CFE01F3#5B7BE9031B04E603
(1741076323.190197) can0 18FF0B00#BF027D7877782414
(1741076323.190791) can0 18FF1800#000016FFFFFFFFFC
(1741076323.191364) can0 18FE0300#102705271A270000
(1741076323.191938) can0 18FE0400#E503E7031B040000
(1741076323.197423) can0 0CFE00F3#00361A2701271427
(1741076323.197983) can0 0CFE01F3#5B7BE8031B04E603
(1741076323.200185) can0 18FF0600#16265B7B1626E803
(1741076323.200791) can0 18FF1800#000016FFFFFFFFFC
(1741076323.201357) can0 18FE0300#102704271A270000
(1741076323.201933) can0 18FE0400#E503E7031B040000
(1741076323.205410) can0 18FF2701#0000007A00013033
(1741076323.208424) can0 0CFE00F3#00361727FE261327
(1741076323.208981) can0 0CFE01F3#5B7BE9031B04E603
(1741076323.210248) can0 18FF0B00#BF027D7877782414
(1741076323.210844) can0 18FF1800#000016FFFFFFFFFC
(1741076323.211415) can0 18FE0300#1027042719270000
(1741076323.211988) can0 18FE0400#E503E7031B040000
(1741076323.219441) can0 0CFE00F3#0036192706271327
(1741076323.219998) can0 0CFE01F3#5B7BE8031B04E603
(1741076323.220558) can0 0CFE05F3#11FE7700D1011027
(1741076323.221146) can0 18FF1800#000016FFFFFFFFFC
(1741076323.221711) can0 18FE0300#1127032719270000
(1741076323.222287) can0 18FE0400#E503E7031B040000
(1741076323.225396) can0 18FF2701#0000007B00013033
(1741076323.227410) can0 18FF0220#F004FFFFFFFFFDFF
(1741076323.228004) can0 18FF0020#FFFF03030800C4FF
(1741076323.228589) can0 18FF0220#F00CFF003CFFFDFF
(1741076323.229426) can0 0CFE00F3#0036202704270F27
(1741076323.229981) can0 0CFE01F3#5B7BE9031B04E603
(1741076323.230542) can0 18FF0400#73030B9600F31808
(1741076323.231109) can0 18FF0B00#BF027D7877782414
(1741076323.231747) can0 18FF1800#000016FFFFFFFFFC
(1741076323.232264) can0 18FE0300#1127042719270000
(1741076323.232837) can0 18FE0400#E503E7031B040000
(1741076323.240188) can0 18FF0C00#0000A70000FFFFF0
(1741076323.240746) can0 0CFE00F3#0036162703271027
(1741076323.241319) can0 0CFE01F3#5B7BE9031B04E603
(1741076323.241891) can0 18FF1800#000016FFFFFFFFFC
(1741076323.242452) can0 18FE0300#112704271A270000
(1741076323.243032) can0 18FE0400#E503E7031B040000
(1741076323.245376) can0 18FF2701#0000007B00013033
(1741076323.250208) can0 18FF0500#00100000000000C0
(1741076323.250758) can0 18FF0600#16265B7B1626E803
(1741076323.251341) can0 18FF0B00#BF027D7877782414
(1741076323.251873) can0 0CFE00F3#00361C2703271627
(1741076323.252434) can0 0CFE01F3#5B7BE9031B04E603
(1741076323.253019) can0 18FF1800#000016FFFFFFFFFC
(1741076323.253498) can0 18FF0E00#00800C0000
(1741076323.254069) can0 18FE0300#1027042719270000
(1741076323.254648) can0 18FE0400#E503E7031B040000
(1741076323.260220) can0 18FF1800#000016FFFFFFFFFC
(1741076323.260796) can0 18FE0300#1127042719270000
(1741076323.261363) can0 18FE0400#E503E7031B040000
(1741076323.262424) can0 0CFE00F3#0036142704270F27
(1741076323.262980) can0 0CFE01F3#5B7BE9031B04E603
(1741076323.265009) can0 726#04
(1741076323.265598) can0 18FF2701#0000007A00013033
(1741076323.270179) can0 18FF3000#21F2010101010101
(1741076323.270752) can0 18FF0B00#BF027D7877782414
(1741076323.271342) can0 18FF1800#000016FFFFFFFFFC
(1741076323.271907) can0 18FE0300#1127042719270000
(1741076323.272480) can0 18FE0400#E503E7031B040000
(1741076323.273547) can0 0CFE00F3#0036132703270B27
(1741076323.274100) can0 0CFE01F3#5B7BE9031B04E603
(1741076323.274664) can0 0CFE05F3#11FE7700D1011027
(1741076323.275214) can0 0CFE09F3#7703C4096E063116
(1741076323.275799) can0 0CFE10F3#0300363D00000000
(1741076323.276345) can0 0CFE02F3#4702050248000000
(1741076323.280216) can0 18FF1800#000016FFFFFFFFFC
(1741076323.280796) can0 18FE0300#1027042718270000
(1741076323.281382) can0 18FE0400#E503E7031B040000
(1741076323.283421) can0 0CFE00F3#0036132706270D27
(1741076323.283983) can0 0CFE01F3#5B7BE9031B04E603
(1741076323.285364) can0 18FF2701#0000007B00013033
(1741076323.290191) can0 18FF0B00#BF027D7877782414
(1741076323.290786) can0 18FF1800#000016FFFFFFFFFC
(1741076323.291352) can0 18FE0300#1027042717270000
(1741076323.291926) can0 18FE0400#E503E7031B040000
(1741076323.294423) can0 0CFE00F3#00361C2703270D27
(1741076323.294976) can0 0CFE01F3#5B7BE9031B04E603
(1741076323.300157) can0 18FF0600#16265B7B1626E803
(1741076323.300755) can0 18FF1800#000016FFFFFFFFFC
(1741076323.301362) can0 18FE0300#0F27042718270000
(1741076323.301904) can0 18FE0400#E503E7031B040000
(1741076323.305317) can0 18FF2701#0000007B00013033
(1741076323.305871) can0 0CFE00F3#00361527FE261427
(1741076323.306429) can0 0CFE01F3#5B7BE9031B04E603
(1741076323.310186) can0 18FF0B00#BF027D7877782414
(1741076323.310783) can0 18FF1800#000016FFFFFFFFFC
(1741076323.311350) can0 18FE0300#1027032717270000
(1741076323.311923) can0 18FE0400#E503E7031B040000
(1741076323.316430) can0 0CFE00F3#00360F27FC260D27
(1741076323.316986) can0 0CFE01F3#5B7BE9031B04E603
(1741076323.320213) can0 18FF1800#000016FFFFFFFFFC
(1741076323.320783) can0 18FE0300#0F27032716270000
(1741076323.321359) can0 18FE0400#E503E7031B040000
(1741076323.325291) can0 18FF2701#0000007A00013033
(1741076323.327429) can0 0CFE00F3#00361C2705270D27
(1741076323.327987) can0 0CFE01F3#5B7BE9031B04E603
(1741076323.328547) can0 0CFE05F3#10FE7900D9011027
(1741076323.329125) can0 18FF0220#F004FFFFFFFFFDFF
(1741076323.329715) can0 18FF0020#FFFF03030800C4FF
(1741076323.330293) can0 18FF0220#F00CFF003CFFFDFF
(1741076323.330854) can0 18FF0400#73030B9600F31808
(1741076323.331421) can0 18FF0B00#BF027D7877782414
(1741076323.332014) can0 18FF1800#000016FFFFFFFFFC
(1741076323.332576) can0 18FE0300#0F27032717270000
(1741076323.333152) can0 18FE0400#E503E7031B040000
(1741076323.337428) can0 0CFE00F3#00361A2702271127
(1741076323.337986) can0 0CFE01F3#5B7BE8031B04E603
(1741076323.340217) can0 18FF0C00#0000A70000FFFFF0
(1741076323.340812) can0 18FF1800#000016FFFFFFFFFC
(1741076323.341379) can0 18FE0300#0F27032717270000
(1741076323.341951) can0 18FE0400#E503E7031B040000
(1741076323.345273) can0 18FF2701#0000007A00013033
(1741076323.348436) can0 0CFE00F3#0036222702271627
(1741076323.348993) can0 0CFE01F3#5B7BE9031B04E603
(1741076323.350264) can0 18FF0500#00100000000000C0
(1741076323.350826) can0 18FF0600#16265B7B1626E803
(1741076323.351394) can0 18FF0B00#BF027D7877782414
(1741076323.351979) can0 18FF1800#000016FFFFFFFFFC
(1741076323.352459) can0 18FF0E00#00800C0000
(1741076323.353025) can0 18FE0300#0F27032717270000
(1741076323.353597) can0 18FE0400#E503E7031B040000
(1741076323.359422) can0 0CFE00F3#0036122709271227
(1741076323.359976) can0 0CFE01F3#5B7BE9031B04E603
(1741076323.360565) can0 18FF1800#000016FFFFFFFFFC
(1741076323.361138) can0 18FE0300#1027032718270000
(1741076323.361712) can0 18FE0400#E503E7031B040000
(1741076323.364918) can0 726#04
(1741076323.365512) can0 18FF2701#0000007B00013033
(1741076323.366270) can0 18FF2301#FFFFFFFF08030001
(1741076323.367012) can0 18FF2101#0F000000000000FF
(1741076323.370194) can0 18FF0B00#BF027D7877782414
(1741076323.370735) can0 0CFE00F3#0036212705271227
(1741076323.371293) can0 0CFE01F3#5B7BE9031B04E603
(1741076323.371882) can0 18FF1800#000016FFFFFFFFFC
(1741076323.372448) can0 18FE0300#1027042717270000
(1741076323.373020) can0 18FE0400#E503E7031B040000
(1741076323.380217) can0 18FF1800#000016FFFFFFFFFC
(1741076323.380798) can0 18FE0300#1027042718270000
(1741076323.381371) can0 18FE0400#E503E7031B040000
(1741076323.381923) can0 0CFE00F3#0036162706271027
(1741076323.382477) can0 0CFE01F3#5B7BE9031B04E603
(1741076323.383037) can0 0CFE05F3#10FE7900D9011027
(1741076323.383590) can0 0CFE09F3#7703C4096E063016
(1741076323.384156) can0 0CFE10F3#0300363D00000000
(1741076323.384723) can0 0CFE02F3#4902050248000000
(1741076323.385320) can0 18FF2701#0000007A00013033
(1741076323.390197) can0 18FF0B00#BF027D7877782414
(1741076323.390791) can0 18FF1800#000016FFFFFFFFFC
(1741076323.391366) can0 18FE0300#1027042718270000
(1741076323.391916) can0 0CFE00F3#0036192704271727
(1741076323.392471) can0 0CFE01F3#5B7BE9031B04E603
(1741076323.393040) can0 18FE0400#E503E7031B040000
(1741076323.400162) can0 18FF0600#16265B7B1626E803
(1741076323.400759) can0 18FF1800#000016FFFFFFFFFC
(1741076323.401344) can0 18FE0300#1127042718270000
(1741076323.401897) can0 18FE0400#E503E7031B040000
(1741076323.402440) can0 0CFE00F3#00361B2701271127
(1741076323.403028) can0 0CFE01F3#5B7BE9031B04E603
(1741076323.405219) can0 18FF2701#0000007A00013033
(1741076323.410194) can0 18FF0B00#BF027D7877782414
(1741076323.410788) can0 18FF1800#000016FFFFFFFFFC
(1741076323.411355) can0 18FE0300#1127042718270000
(1741076323.411929) can0 18FE0400#E503E7031B040000
(1741076323.413433) can0 0CFE00F3#0036162705270D27
(1741076323.413986) can0 0CFE01F3#5B7BE9031B04E603
(1741076323.420212) can0 18FF1800#000016FFFFFFFFFC
(1741076323.420791) can0 18FE0300#1027042718270000
(1741076323.421367) can0 18FE0400#E503E7031B040000
(1741076323.424420) can0 0CFE00F3#0036122706271927
(1741076323.424976) can0 0CFE01F3#5B7BE9031B04E603
(1741076323.425555) can0 18FF2701#0000007B00013033
(1741076323.427449) can0 18FF0220#F004FFFFFFFFFDFF
(1741076323.428032) can0 18FF0020#FFFF03030800C4FF
(1741076323.428612) can0 18FF0220#F00CFF003CFFFDFF
(1741076323.430224) can0 18FF0400#73030B9600F31808
(1741076323.430796) can0 18FF0B00#BF027D7877782414
(1741076323.431387) can0 18FF1800#000016FFFFFFFFFC
(1741076323.431950) can0 18FE0300#1127042717270000
(1741076323.432523) can0 18FE0400#E503E7031B040000
(1741076323.435436) can0 0CFE00F3#00361F2703270D27
(1741076323.435992) can0 0CFE01F3#5B7BE9031B04E603
(1741076323.436548) can0 0CFE05F3#10FE7600CD011027
(1741076323.440184) can0 18FF0C00#0000A70000FFFFF0
(1741076323.440780) can0 18FF1800#000016FFFFFFFFFC
(1741076323.441350) can0 18FE0300#1127042718270000
(1741076323.441919) can0 18FE0400#E503E7031B040000
(1741076323.445188) can0 18FF2701#0000007A00013033
(1741076323.445720) can0 0CFE00F3#0036192702271527
(1741076323.446277) can0 0CFE01F3#5B7BE9031B04E603
(1741076323.450203) can0 18FF0500#00100000000000C0
(1741076323.450761) can0 18FF0600#16265B7B1626E803
(1741076323.451328) can0 18FF0B00#BF027D7877782414
(1741076323.451946) can0 18FF1800#000016FFFFFFFFFC
(1741076323.452398) can0 18FF0E00#00800C0000
(1741076323.452966) can0 18FE0300#1127042718270000
(1741076323.453543) can0 18FE0400#E503E7031B040000
(1741076323.456421) can0 0CFE00F3#00361F2709270F27
(1741076323.456975) can0 0CFE01F3#5B7BE9031B04E603
(1741076323.460219) can0 18FF1800#000016FFFFFFFFFC
(1741076323.460792) can0 18FE0300#1127052718270000
(1741076323.461369) can0 18FE0400#E503E7031B040000
(1741076323.464817) can0 726#04
(1741076323.465405) can0 18FF2701#0000007A00013033
(1741076323.467423) can0 0CFE00F3#0036222707271427
(1741076323.467990) can0 0CFE01F3#5B7BE9031B04E603
(1741076323.470243) can0 18FF0B00#BF027D7877782414
(1741076323.470822) can0 18FF1800#000016FFFFFFFFFC
(1741076323.471382) can0 18FE0300#1127052719270000
(1741076323.471957) can0 18FE0400#E503E7031B040000
(1741076323.478423) can0 0CFE00F3#00361A2706270C27
(1741076323.478979) can0 0CFE01F3#5B7BE9031B04E603
(1741076323.480274) can0 18FF1800#000016FFFFFFFFFC
(1741076323.480840) can0 18FE0300#112705271A270000
(1741076323.481418) can0 18FE0400#E503E7031B040000
(1741076323.485138) can0 18FF2701#0000007A00013033
(1741076323.489552) can0 0CFE00F3#003618270B271327
(1741076323.490106) can0 0CFE01F3#5B7BE9031B04E603
(1741076323.490661) can0 0CFE05F3#10FE7600CD011027
(1741076323.491212) can0 0CFE09F3#7703C4096F063116
(1741076323.491776) can0 0CFE10F3#0300363D00000000
(1741076323.492339) can0 0CFE02F3#4702050248000000
(1741076323.492905) can0 18FF0B00#BF027D7877782414
(1741076323.493505) can0 18FF1800#000016FFFFFFFFFC
(1741076323.494065) can0 18FE0300#112705271A270000
(1741076323.494637) can0 18FE0400#E503E7031B040000
(1741076323.499423) can0 0CFE00F3#0036132704270D27
(1741076323.499978) can0 0CFE01F3#5B7BE9031B04E603
(1741076323.500527) can0 18FF0600#16265B7B1626E803
(1741076323.501121) can0 18FF1800#000016FFFFFFFFFC
(1741076323.501685) can0 18FE0300#1127062719270000
(1741076323.502258) can0 18FE0400#E503E7031B040000
(1741076323.505117) can0 18FF2701#0000007A00013033
(1741076323.510185) can0 18FF0B00#BF027D7877782414
(1741076323.510729) can0 0CFE00F3#00361C2702271227
(1741076323.511286) can0 0CFE01F3#5B7BE9031B04E603
(1741076323.511872) can0 18FF1800#000016FFFFFFFFFC
(1741076323.512440) can0 18FE0300#1027062719270000
(1741076323.513013) can0 18FE0400#E503E7031B040000
(1741076323.520172) can0 18FF3000#22F2010146020911
(1741076323.520765) can0 18FF1800#000016FFFFFFFFFC
(1741076323.521356) can0 18FE0300#1127052719270000
(1741076323.521883) can0 0CFE00F3#0036192703271127
(1741076323.522437) can0 0CFE01F3#5B7BE9031B04E603
(1741076323.523004) can0 18FE0400#E503E7031B040000
(1741076323.525098) can0 18FF2701#0000007A00013033
(1741076323.527376) can0 18FF0220#F004FFFFFFFFFDFF
(1741076323.527966) can0 18FF0020#FFFF03030800C4FF
(1741076323.528580) can0 18FF0220#F00CFF003CFFFDFF
(1741076323.529170) can0 18FF4020#0000FFFFFFFFFFFF
(1741076323.530255) can0 18FF0400#73030B9600F31808
(1741076323.530825) can0 18FF0B00#BF027D7877782414
(1741076323.531414) can0 18FF1800#000016FFFFFFFFFC
(1741076323.531981) can0 18FE0300#1127052719270000
(1741076323.532527) can0 0CFE00F3#0036142704271727
(1741076323.533082) can0 0CFE01F3#5B7BE9031B04E603
(1741076323.533651) can0 18FE0400#E503E7031B040000
(1741076323.540189) can0 18FF0C00#0000A70000FFFFF0
(1741076323.540784) can0 18FF1800#000016FFFFFFFFFC
(1741076323.541353) can0 18FE0300#1127052718270000
(1741076323.541923) can0 18FE0400#E503E7031B040000
(1741076323.543442) can0 0CFE00F3#00361F2700270F27
(1741076323.543997) can0 0CFE01F3#5B7BE9031B04E603
(1741076323.544557) can0 0CFE05F3#0DFE7800DC011027
(1741076323.545129) can0 18FF2701#0000007A00013033
(1741076323.550187) can0 18FF0500#00100000000000C0
(1741076323.550749) can0 18FF0600#16265B7B1626E803
(1741076323.551316) can0 18FF0B00#BF027D7877782414
(1741076323.551907) can0 18FF1800#000016FFFFFFFFFC
(1741076323.552386) can0 18FF0E00#00800C0000
(1741076323.552954) can0 18FE0300#1127052719270000
(1741076323.553504) can0 0CFE00F3#0036162702271127
(1741076323.554059) can0 0CFE01F3#5B7BE9031B04E603
(1741076323.554633) can0 18FE0400#E503E7031B040000
(1741076323.560207) can0 18FF1800#000016FFFFFFFFFC
(1741076323.560777) can0 18FE0300#1127042718270000
(1741076323.561353) can0 18FE0400#E503E7031B040000
(1741076323.564422) can0 0CFE00F3#0036182706270927
(1741076323.564977) can0 0CFE01F3#5B7BE9031B04E603
(1741076323.565210) can0 726#04
(1741076323.565806) can0 18FF2701#0000007B00013033
(1741076323.570185) can0 18FF0B00#BF027C7877782414
(1741076323.570782) can0 18FF1800#000016FFFFFFFFFC
(1741076323.571352) can0 18FE0300#1027052718270000
(1741076323.571926) can0 18FE0400#E503E7031B040000
(1741076323.575413) can0 0CFE00F3#0036152707271A27
(1741076323.575968) can0 0CFE01F3#5B7BE9031B04E603
(1741076323.580210) can0 18FF1800#000016FFFFFFFFFC
(1741076323.580780) can0 18FE0300#1127052718270000
(1741076323.581355) can0 18FE0400#E503E7031B040000
(1741076323.585036) can0 18FF2701#0000007B00013033
(1741076323.586411) can0 0CFE00F3#00361627FD261A27
(1741076323.586973) can0 0CFE01F3#5B7BE8031B04E603
(1741076323.590184) can0 18FF0B00#BE027C7877782414
(1741076323.590779) can0 18FF1800#000016FFFFFFFFFC
(1741076323.591343) can0 18FE0300#1227042717270000
(1741076323.591916) can0 18FE0400#E503E7031B040000
(1741076323.597430) can0 0CFE00F3#0036162703270E27
(1741076323.597984) can0 0CFE01F3#5B7BE9031B04E603
(1741076323.598556) can0 0CFE05F3#17FE7A00D8011027
(1741076323.599104) can0 0CFE09F3#7703C4096F063116
(1741076323.599670) can0 0CFE10F3#0300363D00000000
(1741076323.600235) can0 0CFE02F3#4702050248000000
(1741076323.600787) can0 18FF0600#16265B7B1626E803
(1741076323.601385) can0 18FF1800#000016FFFFFFFFFC
(1741076323.601943) can0 18FE0300#1127042717270000
(1741076323.602515) can0 18FE0400#E503E7031B040000
(1741076323.605008) can0 18FF2701#0000007A00013033
(1741076323.607412) can0 0CFE00F3#00361D270C270D27
(1741076323.607969) can0 0CFE01F3#5B7BE9031B04E603
(1741076323.610214) can0 18FF0B00#BE027C7877782414
(1741076323.610808) can0 18FF1800#000016FFFFFFFFFC
(1741076323.611376) can0 18FE0300#1127052718270000
(1741076323.611949) can0 18FE0400#E503E7031B040000
(1741076323.618417) can0 0CFE00F3#00361127FD260B27
(1741076323.618973) can0 0CFE01F3#5B7BE9031B04E603
(1741076323.620263) can0 18FF1800#000016FFFFFFFFFC
(1741076323.620843) can0 18FE0300#1027062718270000
(1741076323.621419) can0 18FE0400#E503E7031B040000
(1741076323.624989) can0 18FF2701#0000007A00013033
(1741076323.627564) can0 18FF0220#F004FFFFFFFFFDFF
(1741076323.628151) can0 18FF0020#FFFF03030800C4FF
(1741076323.628734) can0 18FF0220#F00CFF003CFFFDFF
(1741076323.629420) can0 0CFE00F3#003616270B271127
(1741076323.629973) can0 0CFE01F3#5B7BE9031B04E603
(1741076323.630532) can0 18FF0400#73030B9600F31808
(1741076323.631101) can0 18FF0B00#BE027C7877782414
(1741076323.631692) can0 18FF1800#000016FFFFFFFFFC
(1741076323.632259) can0 18FE0300#1027052717270000
(1741076323.632832) can0 18FE0400#E503E7031B040000
(1741076323.640181) can0 18FF0C00#0000A70000FFFFF0
(1741076323.640729) can0 0CFE00F3#0036232705271727
(1741076323.641284) can0 0CFE01F3#5B7BE9031B04E603
(1741076323.641872) can0 18FF1800#000016FFFFFFFFFC
(1741076323.642437) can0 18FE0300#1027062717270000
(1741076323.643010) can0 18FE0400#E503E7031B040000
(1741076323.644966) can0 18FF2701#0000007A00013033
(1741076323.650187) can0 18FF2A00#3000000000000000
(1741076323.650763) can0 18FFA100#00600A0000005220
(1741076323.651358) can0 18FF0500#00100000000000C0
(1741076323.651904) can0 0CFE00F3#00361E2708271427
(1741076323.652458) can0 0CFE01F3#5B7BE9031B04E603
(1741076323.653031) can0 0CFE05F3#17FE7A00D8011027
(1741076323.653584) can0 18FF0600#16265B7B1626E803
(1741076323.654167) can0 18FF0800#4000001027000F7B
(1741076323.654743) can0 18FF0900#28285F062830801B
(1741076323.655310) can0 18FF0B00#BE027C7877782414
(1741076323.655901) can0 18FF1800#000016FFFFFFFFFC
(1741076323.656488) can0 18FF3900#0600000300000000
(1741076323.657061) can0 18FF0A00#64FF8811B80BFFFF
(1741076323.657542) can0 18FF0E00#00800C0000
(1741076323.658110) can0 18FE0300#1127062718270000
(1741076323.658685) can0 18FE0400#E503E7031B040000
(1741076323.660286) can0 18FF1800#000016FFFFFFFFFC
(1741076323.660853) can0 18FE0300#1127062719270000
(1741076323.661429) can0 18FE0400#E503E7031B040000
(1741076323.661983) can0 0CFE00F3#00361F27FD261727
(1741076323.662537) can0 0CFE01F3#5B7BE9031B04E603
(1741076323.663239) can0 18FF0D00#7A3E96662438C7F0
(1741076323.664623) can0 726#04
(1741076323.665202) can0 18FF2701#0000007A00013033
(1741076323.670186) can0 18FF0B00#BE027D7877782414
(1741076323.670786) can0 18FF1800#000016FFFFFFFFFC
(1741076323.671351) can0 18FE0300#1127052719270000
(1741076323.671927) can0 18FE0400#E503E7031B040000
(1741076323.672477) can0 0CFE00F3#00361F2703271827
(1741076323.673032) can0 0CFE01F3#5B7BE9031B04E603
(1741076323.680215) can0 18FF1800#000016FFFFFFFFFC
(1741076323.680773) can0 18FE0300#122705271A270000
(1741076323.681366) can0 18FE0400#E503E7031B040000
(1741076323.683424) can0 0CFE00F3#0036162708271627
(1741076323.683974) can0 0CFE01F3#5B7BE9031B04E603
(1741076323.684933) can0 18FF2701#0000007A00013033
(1741076323.690188) can0 18FF0B00#BE027D7877782414
(1741076323.690784) can0 18FF1800#000016FFFFFFFFFC
(1741076323.691345) can0 18FE0300#1227052719270000
(1741076323.691918) can0 18FE0400#E503E7031B040000
(1741076323.694416) can0 0CFE00F3#00361C2701271527
(1741076323.694972) can0 0CFE01F3#5B7BE9031B04E603
(1741076323.700149) can0 18FF0600#16265B7B1626E803
(1741076323.700749) can0 18FF1800#000016FFFFFFFFFC
(1741076323.701332) can0 18FE0300#1327052719270000
(1741076323.701888) can0 18FE0400#E503E7031B040000
(1741076323.704921) can0 18FF2701#0000007B00013033
(1741076323.705550) can0 0CFE00F3#00361B2705270E27
(1741076323.706102) can0 0CFE01F3#5B7BE9031B04E603
(1741076323.706659) can0 0CFE05F3#16FE7B00D4011027
(1741076323.707210) can0 0CFE09F3#7703C4096F063116
(1741076323.707775) can0 0CFE10F3#0300363D00000000
(1741076323.708340) can0 0CFE02F3#4702050248000000
(1741076323.710245) can0 18FF0B00#BE027D7877782414
(1741076323.710839) can0 18FF1800#000016FFFFFFFFFC
(1741076323.711402) can0 18FE0300#1227052719270000
(1741076323.711975) can0 18FE0400#E503E7031B040000
(1741076323.715413) can0 0CFE00F3#00361C270A271227
(1741076323.715969) can0 0CFE01F3#5B7BE9031B04E603
(1741076323.720207) can0 18FF1800#000016FFFFFFFFFC
(1741076323.720775) can0 18FE0300#1227052719270000
(1741076323.721352) can0 18FE0400#E503E7031B040000
(1741076323.724901) can0 18FF2701#0000007B00013033
(1741076323.726419) can0 0CFE00F3#0036162706271D27
(1741076323.726976) can0 0CFE01F3#5B7BE9031B04E603
(1741076323.727555) can0 18FF0220#F004FFFFFFFFFDFF
(1741076323.728159) can0 18FF0020#FFFF03030800C4FF
(1741076323.728745) can0 18FF0220#F00CFF003CFFFDFF
(1741076323.730219) can0 18FF0400#73030B9600F31808
(1741076323.730797) can0 18FF0B00#BE027D7877782414
(1741076323.731386) can0 18FF1800#000016FFFFFFFFFC
(1741076323.731951) can0 18FE0300#1327062719270000
(1741076323.732523) can0 18FE0400#E503E7031B040000
(1741076323.737418) can0 0CFE00F3#00361D2702271427
(1741076323.737977) can0 0CFE01F3#5B7BE9031B04E603
(1741076323.740211) can0 18FF0C00#0000A70000FFFFF0
(1741076323.740808) can0 18FF1800#000016FFFFFFFFFC
(1741076323.741378) can0 18FE0300#1327052719270000
(1741076323.741946) can0 18FE0400#E503E7031B040000
(1741076323.744879) can0 18FF2701#0000007B00013033
(1741076323.748420) can0 0CFE00F3#0036162706270C27
(1741076323.748977) can0 0CFE01F3#5B7BE9031B04E603
(1741076323.750246) can0 18FF0500#00100000000000C0
(1741076323.750804) can0 18FF0600#16265A7B1626E803
(1741076323.751372) can0 18FF0B00#BE027D7777782414
(1741076323.751963) can0 18FF1800#000016FFFFFFFFFC
(1741076323.752441) can0 18FF0E00#00800C0000
(1741076323.753012) can0 18FE0300#1327052719270000
(1741076323.753583) can0 18FE0400#E503E7031B040000
(1741076323.759428) can0 0CFE00F3#00361C2702270E27
(1741076323.759982) can0 0CFE01F3#5B7BE9031B04E603
(1741076323.760542) can0 0CFE05F3#16FE7B00D4011027
(1741076323.761126) can0 18FF1800#000016FFFFFFFFFC
(1741076323.761698) can0 18FE0300#1227052719270000
(1741076323.762272) can0 18FE0400#E503E7031B040000
(1741076323.764516) can0 726#04
(1741076323.765117) can0 18FF2701#0000007A00013033
(1741076323.769422) can0 0CFE00F3#00361A27FF261E27
(1741076323.770011) can0 0CFE01F3#5B7BE9031B04E603
(1741076323.770553) can0 18FF3000#21F2010101010101
(1741076323.771120) can0 18FF0B00#BE027D7777782414
(1741076323.771710) can0 18FF1800#000016FFFFFFFFFC
(1741076323.772274) can0 18FE0300#1227052719270000
(1741076323.772848) can0 18FE0400#E503E7031B040000
(1741076323.780205) can0 18FF1800#000016FFFFFFFFFC
(1741076323.780762) can0 0CFE00F3#0036202714270927
(1741076323.781327) can0 0CFE01F3#5B7BE9031B04E603
(1741076323.781877) can0 18FE0300#1327042719270000
(1741076323.782441) can0 18FE0400#E503E7031B040000
(1741076323.784837) can0 18FF2701#0000007A00013033
(1741076323.790180) can0 18FF0B00#BE027D7777782414
(1741076323.790775) can0 18FF1800#000016FFFFFFFFFC
(1741076323.791341) can0 18FE0300#122706271A270000
(1741076323.791886) can0 0CFE00F3#00361F2703270D27
(1741076323.792444) can0 0CFE01F3#5B7BE9031B04E603
(1741076323.793008) can0 18FE0400#E503E7031B040000
(1741076323.800149) can0 18FF0600#16265A7B1626E803
(1741076323.800741) can0 18FF1800#000016FFFFFFFFFC
(1741076323.801317) can0 18FE0300#112706271A270000
(1741076323.801881) can0 18FE0400#E503E7031B040000
(1741076323.802426) can0 0CFE00F3#0036202704271327
(1741076323.802983) can0 0CFE01F3#5B7BE9031B04E603
(1741076323.804818) can0 18FF2701#0000007B00013033
(1741076323.810205) can0 18FF0B00#BE027D7777782414
(1741076323.810781) can0 18FF1800#000016FFFFFFFFFC
(1741076323.811341) can0 18FE0300#122706271B270000
(1741076323.811914) can0 18FE0400#E503E7031B040000
(1741076323.813441) can0 0CFE00F3#00361D270B270C27
(1741076323.813996) can0 0CFE01F3#5B7BE9031B04E603
(1741076323.814553) can0 0CFE05F3#1AFE7C00DD011027
(1741076323.815105) can0 0CFE09F3#7703C4096F063116
(1741076323.815676) can0 0CFE10F3#0300363D00000000
(1741076323.816234) can0 0CFE02F3#4702050248000000
(1741076323.820205) can0 18FF1800#000016FFFFFFFFFC
(1741076323.820779) can0 18FE0300#112706271B270000
(1741076323.821347) can0 18FE0400#E503E7031B040000
(1741076323.823416) can0 0CFE00F3#00361C2705270B27
(1741076323.823972) can0 0CFE01F3#5B7BE9031B04E603
(1741076323.824794) can0 18FF2701#0000007A00013033
(1741076323.828322) can0 18FF0220#F004FFFFFFFFFDFF
(1741076323.828949) can0 18FF0020#FFFF03030800C4FF
(1741076323.829559) can0 18FF0220#F00CFF003CFFFDFF
(1741076323.830147) can0 18FF4020#0000FFFFFFFFFFFF
(1741076323.830705) can0 18FF0400#73030B9600F31808
(1741076323.831280) can0 18FF0B00#BF027D7777782414
(1741076323.831870) can0 18FF1800#000016FFFFFFFFFC
(1741076323.832440) can0 18FE0300#102706271B270000
(1741076323.833011) can0 18FE0400#E503E7031B040000
(1741076323.834420) can0 0CFE00F3#0036162707271227
(1741076323.834973) can0 0CFE01F3#5B7BE9031B04E603
(1741076323.840176) can0 18FF0C00#0000A70000FFFFF0
(1741076323.840779) can0 18FF1800#000016FFFFFFFFFC
(1741076323.841373) can0 18FE0300#102706271A270000
(1741076323.841916) can0 18FE0400#E503E7031B040000
(1741076323.844781) can0 18FF2701#0000007B00013033
(1741076323.845419) can0 0CFE00F3#0036182707271127
(1741076323.845972) can0 0CFE01F3#5B7BE9031B04E603
(1741076323.850189) can0 18FF0500#00100000000000C0
(1741076323.850750) can0 18FF0600#16265A7B1626E803
(1741076323.851320) can0 18FF0B00#BF027D7777782414
(1741076323.851913) can0 18FF1800#000016FFFFFFFFFC
(1741076323.852390) can0 18FF0E00#00800C0000
(1741076323.852960) can0 18FE0300#102706271A270000
(1741076323.853535) can0 18FE0400#E503E7031B040000
(1741076323.856415) can0 0CFE00F3#0036222708271427
(1741076323.856974) can0 0CFE01F3#5B7BE8031B04E603
(1741076323.860207) can0 18FF1800#000016FFFFFFFFFC
(1741076323.860790) can0 18FF0120#F0FFFF7FFFFFFFFF
(1741076323.861353) can0 18FE0300#112707271A270000
(1741076323.861924) can0 18FE0400#E503E7031B040000
(1741076323.864417) can0 726#04
(1741076323.865002) can0 18FF2701#0000007B00023033
(1741076323.867431) can0 0CFE00F3#00362027F9261627
(1741076323.867986) can0 0CFE01F3#5B7BE9031B04E603
(1741076323.868555) can0 0CFE05F3#1AFE7C00DD011027
(1741076323.870296) can0 18FF0B00#BF027D7777782414
(1741076323.870889) can0 18FF1800#000016FFFFFFFFFC
(1741076323.871455) can0 18FE0300#112705271B270000
(1741076323.872025) can0 18FE0400#E503E7031B040000
(1741076323.877423) can0 0CFE00F3#0036132700271427
(1741076323.877974) can0 0CFE01F3#5B7BE9031B04E603
(1741076323.880248) can0 18FF1800#000016FFFFFFFFFC
(1741076323.880812) can0 18FE0300#112705271A270000
(1741076323.881384) can0 18FE0400#E503E7031B040000
(1741076323.884732) can0 18FF2701#0000007A00013033
(1741076323.888413) can0 0CFE00F3#0036162701271227
(1741076323.888973) can0 0CFE01F3#5B7BE8031B04E603
(1741076323.890258) can0 18FF0B00#BF027D7777782414
(1741076323.890853) can0 18FF1800#000016FFFFFFFFFC
(1741076323.891418) can0 18FE0300#1227042719270000
(1741076323.891991) can0 18FE0400#E503E7031B040000
(1741076323.899420) can0 0CFE00F3#00361927F9260B27
(1741076323.899976) can0 0CFE01F3#5B7BE9031B04E603
(1741076323.900524) can0 18FF0600#16265A7B1626E803
(1741076323.901119) can0 18FF1800#000016FFFFFFFFFC
(1741076323.901686) can0 18FE0300#1227042719270000
(1741076323.902258) can0 18FE0400#E503E7031B040000
(1741076323.904716) can0 18FF2701#0000007A00013033
(1741076323.910187) can0 18FF0B00#BF027D7777782414
(1741076323.910730) can0 0CFE00F3#003621270F271227
(1741076323.911287) can0 0CFE01F3#5B7BE9031B04E603
(1741076323.911916) can0 18FF1800#000016FFFFFFFFFC
(1741076323.912437) can0 18FE0300#1127032719270000
(1741076323.913010) can0 18FE0400#E503E7031B040000
(1741076323.920216) can0 18FF1800#000016FFFFFFFFFC
(1741076323.920781) can0 18FE0300#1127042719270000
(1741076323.921374) can0 18FE0400#E503E7031B040000
(1741076323.921904) can0 0CFE00F3#0036192703271127
(1741076323.922461) can0 0CFE01F3#5B7BE9031B04E603
(1741076323.923019) can0 0CFE05F3#1DFEA400BD011027
(1741076323.923570) can0 0CFE09F3#7503C4096E063116
(1741076323.924135) can0 0CFE10F3#0300363D00000000
(1741076323.924700) can0 0CFE02F3#4802050248000000
(1741076323.925271) can0 18FF2701#0000007A00013033
(1741076323.927383) can0 18FF0220#F004FFFFFFFFFDFF
(1741076323.927961) can0 18FF0020#FFFF03030800C4FF
(1741076323.928543) can0 18FF0220#F00CFF003CFFFDFF
(1741076323.930222) can0 18FF0400#73030B9600F31808
(1741076323.930800) can0 18FF0B00#BF027D7777782414
(1741076323.931390) can0 18FF1800#000016FFFFFFFFFC
(1741076323.931942) can0 0CFE00F3#0036172700271627
(1741076323.932499) can0 0CFE01F3#5B7BE9031B04E603
(1741076323.933057) can0 18FE0300#1127042719270000
(1741076323.933634) can0 18FE0400#E503E7031B040000
(1741076323.940182) can0 18FF0C00#0000A70000FFFFF0
(1741076323.940778) can0 18FF1800#000016FFFFFFFFFC
(1741076323.941345) can0 18FE0300#1127042719270000
(1741076323.941914) can0 18FE0400#E503E7031B040000
(1741076323.942458) can0 0CFE00F3#0036262708270D27
(1741076323.943018) can0 0CFE01F3#5B7BE8031B04E603
(1741076323.944672) can0 18FF2701#0000007A00013033
(1741076323.950181) can0 18FF0500#10100000000000C0
(1741076323.950742) can0 18FF0600#16265A7B1626E803
(1741076323.951312) can0 18FF0B00#BF027D7777782414
(1741076323.951903) can0 18FF1800#000016FFFFFFFFFC
(1741076323.952371) can0 18FF0E00#01800C1626
(1741076323.952935) can0 18FE0300#112704271A270000
(1741076323.953488) can0 0CFE00F3#00361C2705270D27
(1741076323.954040) can0 0CFE01F3#5B7BE9031B04E603
(1741076323.954607) can0 18FE0400#E503E7031B040000
(1741076323.960212) can0 18FF1800#000016FFFFFFFFFC
(1741076323.960785) can0 18FE0300#102704271A270000
(1741076323.961360) can0 18FE0400#E503E7031B040000
(1741076323.964409) can0 0CFE00F3#0036172703271127
(1741076323.964964) can0 0CFE01F3#5B7BE9031B04E603
(1741076323.965196) can0 726#05
(1741076323.965899) can0 18FF2701#0000007A00013031
(1741076323.970186) can0 18FF0B00#BF027D7777782414
(1741076323.970781) can0 18FF1800#000016FFFFFFFFFC
(1741076323.971353) can0 18FE0300#102704271A270000
(1741076323.971926) can0 18FE0400#E503E7031B040000
(1741076323.975423) can0 0CFE00F3#00361C2704270E27
(1741076323.975978) can0 0CFE01F3#5B7BE9031B04E603
(1741076323.976538) can0 0CFE05F3#1DFEA400BD011027
(1741076323.980211) can0 18FF1800#000016FFFFFFFFFC
(1741076323.980785) can0 18FE0300#102704271A270000
(1741076323.981362) can0 18FE0400#E503E7031B040000
(1741076323.984635) can0 18FF2701#0000007A00013031
(1741076323.985413) can0 0CFE00F3#00361A2700270D27
(1741076323.985972) can0 0CFE01F3#5B7BE8031B04E603
(1741076323.990210) can0 18FF0B00#BF027D7777782414
(1741076323.990781) can0 18FF1800#000016FFFFFFFFFC
(1741076323.991354) can0 18FE0300#102704271A270000
(1741076323.991926) can0 18FE0400#E503E7031B040000
(1741076323.996410) can0 0CFE00F3#00361F2704271427
(1741076323.996966) can0 0CFE01F3#5B7BE9031B04E603
(1741076324.000151) can0 18FF0600#16265A7B1626E803
(1741076324.000747) can0 18FF1800#000016FFFFFFFFFC
(1741076324.001330) can0 18FE0300#102704271A270000
(1741076324.001892) can0 18FE0400#E503E7031B040000
(1741076324.004616) can0 18FF2701#0000007A00013031
(1741076324.007419) can0 0CFE00F3#00361C2705270827
(1741076324.007975) can0 0CFE01F3#5B7BE9031B04E603
(1741076324.010215) can0 18FF0B00#BF027D7777782414
(1741076324.010810) can0 18FF1800#000016FFFFFFFFFC
(1741076324.011374) can0 18FE0300#0F2704271A270000
(1741076324.011946) can0 18FE0400#E503E7031B040000
(1741076324.018423) can0 0CFE00F3#00361827FA260F27
(1741076324.018979) can0 0CFE01F3#5B7BE9031B04E603
(1741076324.020218) can0 18FF3000#22F2010146020911
(1741076324.020813) can0 18FF1800#000016FFFFFFFFFC
(1741076324.021386) can0 18FE0300#0E2704271A270000
(1741076324.021955) can0 18FE0400#E503E7031B040000
(1741076324.024594) can0 18FF2701#0000007A00013031
(1741076324.027359) can0 18FF0220#F004FFFFFFFFFDFF
(1741076324.027954) can0 18FF0020#FFFF03030800C4FF
(1741076324.028536) can0 18FF0220#F00CFF003CFFFDFF
(1741076324.029433) can0 0CFE00F3#00361527FC260D27
(1741076324.029987) can0 0CFE01F3#5B7BE9031B04E603
(1741076324.030547) can0 0CFE05F3#28FE9D00C5011027
(1741076324.031095) can0 0CFE09F3#7703C4096F063116
(1741076324.031661) can0 0CFE10F3#0300363D00000000
(1741076324.032225) can0 0CFE02F3#4702050248000000
(1741076324.032787) can0 18FF0400#73030B9600F31808
(1741076324.033368) can0 18FF0B00#BF027D7777782414
(1741076324.033954) can0 18FF1800#000016FFFFFFFFFC
(1741076324.034521) can0 18FE0300#0E2703271A270000
(1741076324.035094) can0 18FE0400#E503E7031B040000
(1741076324.039407) can0 0CFE00F3#003619270B271227
(1741076324.039962) can0 0CFE01F3#5B7BE9031B04E603
(1741076324.040554) can0 18FF0C00#0000A70000FFFFF0
(1741076324.041146) can0 18FF1800#000016FFFFFFFFFC
(1741076324.041710) can0 18FE0300#0E27032719270000
(1741076324.042282) can0 18FE0400#E503E7031B040000
(1741076324.044575) can0 18FF2701#0000007A00003031
(1741076324.050179) can0 18FF0500#10100000000000C0
(1741076324.050729) can0 0CFE00F3#0036182703271127
(1741076324.051282) can0 0CFE01F3#5B7BE9031B04E603
(1741076324.051836) can0 18FF0600#16265A7B1626E803
(1741076324.052406) can0 18FF0B00#BF027D7777782414
(1741076324.052998) can0 18FF1800#000016FFFFFFFFFC
(1741076324.053470) can0 18FF0E00#01800C1626
(1741076324.054038) can0 18FE0300#0F27042719270000
(1741076324.054610) can0 18FE0400#E503E7031B040000
(1741076324.060206) can0 18FF1800#000016FFFFFFFFFC
(1741076324.060779) can0 18FE0300#0F27042719270000
(1741076324.061354) can0 18FE0400#E503E7031B040000
(1741076324.061907) can0 0CFE00F3#00361927FF260727
(1741076324.062462) can0 0CFE01F3#5B7BE9031B04E603
(1741076324.064216) can0 726#05
(1741076324.064802) can0 18FF2701#0000007A00003031
(1741076324.070183) can0 18FF0B00#BF027D7777782414
(1741076324.070778) can0 18FF1800#000016FFFFFFFFFC
(1741076324.071342) can0 18FE0300#0E27032719270000
(1741076324.071914) can0 18FE0400#E503E7031B040000
(1741076324.072454) can0 0CFE00F3#00361C270D270A27
(1741076324.073010) can0 0CFE01F3#5B7BE9031B04E603
(1741076324.080202) can0 18FF1800#000016FFFFFFFFFC
(1741076324.080769) can0 18FE0300#0E27042719270000
(1741076324.081345) can0 18FE0400#E503E7031B040000
(1741076324.083414) can0 0CFE00F3#0036232702270D27
(1741076324.083969) can0 0CFE01F3#5B7BE9031B04E603
(1741076324.084528) can0 0CFE05F3#28FE9D00C5011027
(1741076324.085101) can0 18FF2701#0000007A00013031
(1741076324.090184) can0 18FF0B00#BF027D7777782414
(1741076324.090776) can0 18FF1800#000016FFFFFFFFFC
(1741076324.091340) can0 18FE0300#0D2704271A270000
(1741076324.091912) can0 18FE0400#E503E7031B040000
(1741076324.093416) can0 0CFE00F3#00361A27FE261727
(1741076324.093969) can0 0CFE01F3#5B7BE9031B04E603
(1741076324.100144) can0 18FF0600#16265A7B1626E803
(1741076324.100740) can0 18FF1800#000016FFFFFFFFFC
(1741076324.101332) can0 18FE0300#0E2703271A270000
(1741076324.101882) can0 18FE0400#E503E7031B040000
(1741076324.104415) can0 0CFE00F3#0036192700270B27
(1741076324.104971) can0 0CFE01F3#5B7BE9031B04E603
(1741076324.105547) can0 18FF2701#0000007A00013031
(1741076324.110180) can0 18FF0B00#BF027D7777782414
(1741076324.110774) can0 18FF1800#000016FFFFFFFFFC
(1741076324.111343) can0 18FE0300#0E2703271A270000
(1741076324.111915) can0 18FE0400#E503E7031B040000
(1741076324.115399) can0 0CFE00F3#003619270F270A27
(1741076324.115954) can0 0CFE01F3#5B7BE9031B04E603
(1741076324.120204) can0 18FF1800#000016FFFFFFFFFC
(1741076324.120770) can0 18FE0300#0D27042719270000
(1741076324.121346) can0 18FE0400#E503E7031B040000
(1741076324.124495) can0 18FF2701#0000007A00013031
(1741076324.126402) can0 0CFE00F3#0036192703270D27
(1741076324.126959) can0 0CFE01F3#5B7BE9031B04E603
(1741076324.127698) can0 18FF0220#F004FFFFFFFFFDFF
(1741076324.128297) can0 18FF0020#FFFF03030800C4FF
(1741076324.128879) can0 18FF0220#F00CFF003CFFFDFF
(1741076324.129470) can0 18FF0220#F003FFFFFFFFFDFF
(1741076324.130062) can0 18FF0200#0022FFFFFFFFFDFF
(1741076324.130622) can0 18FF0400#73030B9600F31808
(1741076324.131195) can0 18FF0B00#BF027D7777782414
(1741076324.131785) can0 18FF1800#000016FFFFFFFFFC
(1741076324.132349) can0 18FE0300#0D27042719270000
(1741076324.132922) can0 18FE0400#E503E7031B040000
(1741076324.137539) can0 0CFE00F3#00361B270A271027
(1741076324.138097) can0 0CFE01F3#5B7BE8031B04E603
(1741076324.138662) can0 0CFE05F3#1EFEA000B9011027
(1741076324.139224) can0 0CFE09F3#7503C4096F063116
(1741076324.139784) can0 0CFE10F3#0300363D00000000
(1741076324.140337) can0 0CFE02F3#4702050248000000
(1741076324.140928) can0 18FF0300#310000000000FFFF
(1741076324.141530) can0 18FF0C00#0000A70000FFFFF0
(1741076324.142118) can0 18FF1800#000016FFFFFFFFFC
(1741076324.142682) can0 18FE0300#0E27052719270000
(1741076324.143258) can0 18FE0400#E503E7031B040000
(1741076324.144474) can0 18FF2701#0000007A00013031
(1741076324.147397) can0 0CFE00F3#003617270B271427
(1741076324.147953) can0 0CFE01F3#5B7BE9031B04E603
(1741076324.150225) can0 18FF2A00#3500000000000000
(1741076324.150805) can0 18FF0500#10100000000000C0
(1741076324.151362) can0 18FF0600#16265A7B1626E803
(1741076324.151945) can0 18FF0800#4000001027000F7B
(1741076324.152521) can0 18FF0900#28285F062830801B
(1741076324.153094) can0 18FF0B00#BF027D7777782414
(1741076324.153689) can0 18FF1800#000016FFFFFFFFFC
(1741076324.154157) can0 18FF0E00#01800C1626
(1741076324.154720) can0 18FE0300#0E27062719270000
(1741076324.155293) can0 18FE0400#E503E7031B040000
(1741076324.158401) can0 0CFE00F3#0036162702271427
(1741076324.158958) can0 0CFE01F3#5B7BE9031B04E603
(1741076324.160266) can0 18FF1800#000016FFFFFFFFFC
(1741076324.160836) can0 18FE0300#0F27062719270000
(1741076324.161424) can0 18FE0400#E503E7031B040000
(1741076324.164113) can0 726#05
(1741076324.164704) can0 18FF2701#0000007A00013031
(1741076324.169400) can0 0CFE00F3#003617270B271027
(1741076324.169958) can0 0CFE01F3#5B7BE9031B04E603
(1741076324.170524) can0 18FF0B00#BF027D7777782414
(1741076324.171115) can0 18FF1800#000016FFFFFFFFFC
(1741076324.171683) can0 18FE0300#0F27062718270000
(1741076324.172256) can0 18FE0400#E503E7031B040000
(1741076324.180196) can0 18FF1800#000016FFFFFFFFFC
(1741076324.180739) can0 0CFE00F3#0036122709270C27
(1741076324.181322) can0 0CFE01F3#5B7BE9031B04E603
(1741076324.181860) can0 18FE0300#0F27062718270000
(1741076324.182430) can0 18FE0400#E503E7031B040000
(1741076324.184431) can0 18FF2701#0000007A00013031
(1741076324.190180) can0 18FF0B00#BF027D7777782414
(1741076324.190788) can0 18FF1800#000016FFFFFFFFFC
(1741076324.191339) can0 18FE0300#0F27072717270000
(1741076324.191892) can0 0CFE00F3#00361727FC260C27
(1741076324.192447) can0 0CFE01F3#5B7BE9031B04E603
(1741076324.193009) can0 0CFE05F3#1EFEA000B9011027
(1741076324.193577) can0 18FE0400#E503E7031B040000
(1741076324.200140) can0 18FF0600#16265A7B1626E803
(1741076324.200736) can0 18FF1800#000016FFFFFFFFFC
(1741076324.201316) can0 18FE0300#0F27062717270000
(1741076324.201841) can0 0CFE00F3#003619270C271127
(1741076324.202396) can0 0CFE01F3#5B7BE9031B04E603
(1741076324.202964) can0 18FE0400#E503E7031B040000
(1741076324.204414) can0 18FF2701#0000007A01013031
(1741076324.210174) can0 18FF0B00#BE027C7777782414
(1741076324.210770) can0 18FF1800#000016FFFFFFFFFC
(1741076324.211333) can0 18FE0300#0F27062717270000
(1741076324.211907) can0 18FE0400#E503E7031B040000
(1741076324.212451) can0 0CFE00F3#003612270A271427
(1741076324.213006) can0 0CFE01F3#5B7BE9031B04E603
(1741076324.220199) can0 18FF1800#000016FFFFFFFFFC
(1741076324.220766) can0 18FE0300#0F27072717270000
(1741076324.221356) can0 18FE0400#E503E7031B040000
(1741076324.223410) can0 0CFE00F3#00361D2706271527
(1741076324.223966) can0 0CFE01F3#5B7BE9031B04E603
(1741076324.224537) can0 18FF2701#0000007A01013031
(1741076324.230173) can0 18FF0B00#BE027C7777782414
(1741076324.230764) can0 18FF1800#000016FFFFFFFFFC
(1741076324.231343) can0 18FF0220#F004FFFFFFFFFDFF
(1741076324.231907) can0 18FE0300#1027072717270000
(1741076324.232485) can0 18FF0020#FFFF03030800C4FF
(1741076324.233054) can0 18FE0400#E503E7031B040000
(1741076324.233633) can0 18FF0220#F00CFF003CFFFDFF
(1741076324.234184) can0 18FF2201#312E30342E303031
(1741076324.234722) can0 0CFE00F3#00361C270A270C27
(1741076324.235283) can0 0CFE01F3#5B7BE8031B04E603
(1741076324.235874) can0 18FF4020#0000FFFFFFFFFFFF
(1741076324.240181) can0 18FF0C00#0000A70000FFFFF0
(1741076324.240751) can0 18FF0400#73030B9600F31808
(1741076324.241347) can0 18FF1800#000016FFFFFFFFFC
(1741076324.241906) can0 18FE0300#0F27072717270000
(1741076324.242479) can0 18FE0400#E503E7031B040000
(1741076324.244372) can0 18FF2701#0000007A01013031
(1741076324.245420) can0 0CFE00F3#00361B2704271127
(1741076324.245973) can0 0CFE01F3#5B7BE9031B04E603
(1741076324.246532) can0 0CFE05F3#30FE9B00D5011027
(1741076324.247081) can0 0CFE09F3#7503C4096F063116
(1741076324.247648) can0 0CFE10F3#0300363D00000000
(1741076324.248212) can0 0CFE02F3#4702050248000000
(1741076324.250238) can0 18FF0500#10100000000000C0
(1741076324.250790) can0 18FF0600#16265A7B1626E803
(1741076324.251357) can0 18FF0B00#BE027D7777782414
(1741076324.251947) can0 18FF1800#000016FFFFFFFFFC
(1741076324.252415) can0 18FF0E00#01800C1626
(1741076324.252983) can0 18FE0300#0F27072718270000
(1741076324.253562) can0 18FE0400#E503E7031B040000
(1741076324.255409) can0 0CFE00F3#0036202701270D27
(1741076324.255963) can0 0CFE01F3#5B7BE9031B04E603
(1741076324.260200) can0 18FF1800#000016FFFFFFFFFC
(1741076324.260771) can0 18FE0300#0F27062718270000
(1741076324.261348) can0 18FE0400#E503E7031B040000
(1741076324.264017) can0 726#05
(1741076324.264599) can0 18FF2701#0000007A01013031
(1741076324.266404) can0 0CFE00F3#00361F2702270F27
(1741076324.266961) can0 0CFE01F3#5B7BE9031B04E603
(1741076324.270166) can0 18FF3000#21F2010101010101
(1741076324.270735) can0 18FF0B00#BE027D7777782414
(1741076324.271328) can0 18FF1800#000016FFFFFFFFFC
(1741076324.271895) can0 18FE0300#0F27062719270000
(1741076324.272467) can0 18FE0400#E503E7031B040000
(1741076324.277407) can0 0CFE00F3#0036182703271427
(1741076324.277961) can0 0CFE01F3#5B7BE9031B04E603
(1741076324.280231) can0 18FF1800#000016FFFFFFFFFC
(1741076324.280802) can0 18FE0300#0F27062719270000
(1741076324.281380) can0 18FE0400#E503E7031B040000
(1741076324.284333) can0 18FF2701#0000007A01003031
(1741076324.288412) can0 0CFE00F3#00361627FE261627
(1741076324.288969) can0 0CFE01F3#5B7BE9031B04E603
(1741076324.290238) can0 18FF0B00#BE027D7777782414
(1741076324.290833) can0 18FF1800#000016FFFFFFFFFC
(1741076324.291407) can0 18FE0300#1027062718270000
(1741076324.291980) can0 18FE0400#E503E7031B040000
(1741076324.299413) can0 0CFE00F3#00361D27FE261227
(1741076324.299970) can0 0CFE01F3#5B7BE9031B04E603
(1741076324.300528) can0 0CFE05F3#21FEAF00BB011027
(1741076324.301081) can0 18FF0600#16265A7B1626E803
(1741076324.301674) can0 18FF1800#000016FFFFFFFFFC
(1741076324.302243) can0 18FE0300#1027052718270000
(1741076324.302817) can0 18FE0400#E503E7031B040000
(1741076324.304315) can0 18FF2701#0000007A01013031
(1741076324.309405) can0 0CFE00F3#0036122703270A27
(1741076324.309959) can0 0CFE01F3#5B7BE9031B04E603
(1741076324.310522) can0 18FF0B00#BE027D7777782414
(1741076324.311113) can0 18FF1800#000016FFFFFFFFFC
(1741076324.311681) can0 18FE0300#1127042718270000
(1741076324.312253) can0 18FE0400#E503E7031B040000
(1741076324.320194) can0 18FF1800#000016FFFFFFFFFC
(1741076324.320741) can0 0CFE00F3#00361E27FA260927
(1741076324.321329) can0 0CFE01F3#5B7BE9031B04E603
(1741076324.321873) can0 18FE0300#1027042718270000
(1741076324.322443) can0 18FE0400#E503E7031B040000
(1741076324.324292) can0 18FF2701#0000007A01013031
(1741076324.327412) can0 18FF0220#F004FFFFFFFFFDFF
(1741076324.328000) can0 18FF0020#FFFF03030800C4FF
(1741076324.328580) can0 18FF0220#F00CFF003CFFFDFF
(1741076324.330252) can0 18FF0B00#BE027D7777782414
(1741076324.330847) can0 18FF1800#000016FFFFFFFFFC
(1741076324.331415) can0 18FE0300#0F27032718270000
(1741076324.331969) can0 0CFE00F3#00362327FD260D27
(1741076324.332524) can0 0CFE01F3#5B7BE9031B04E603
(1741076324.333092) can0 18FE0400#E503E7031B040000
(1741076324.340173) can0 18FF0C00#0000A70000FFFFF0
(1741076324.340768) can0 18FF1800#000016FFFFFFFFFC
(1741076324.341355) can0 18FE0300#0F27032719270000
(1741076324.341908) can0 18FE0400#E503E7031B040000
(1741076324.342459) can0 0CFE00F3#0036132700271427
(1741076324.343015) can0 0CFE01F3#5B7BE9031B04E603
(1741076324.344269) can0 18FF2701#0000007A01023031
(1741076324.350169) can0 18FF0500#10100000000000C0
(1741076324.350732) can0 18FF0600#16265A7B1626E803
(1741076324.351303) can0 18FF0B00#BF027D7777782414
(1741076324.351892) can0 18FF1800#000016FFFFFFFFFC
(1741076324.352360) can0 18FF0E00#01800C1626
(1741076324.352928) can0 18FE0300#0F27022718270000
(1741076324.353511) can0 18FE0400#E503E7031B040000
(1741076324.354058) can0 0CFE00F3#0036172702271327
(1741076324.354613) can0 0CFE01F3#5B7BE9031B04E603
(1741076324.355173) can0 0CFE05F3#21FEAF00BB011027
(1741076324.355721) can0 0CFE09F3#7503C4096F063116
(1741076324.356288) can0 0CFE10F3#0300363D00000000
(1741076324.356852) can0 0CFE02F3#4802050248000000
(1741076324.360194) can0 18FF1800#000016FFFFFFFFFC
(1741076324.360773) can0 18FE0300#1027022718270000
(1741076324.361348) can0 18FE0400#E503E7031B040000
(1741076324.363401) can0 0CFE00F3#0036222702271127
(1741076324.363957) can0 0CFE01F3#5B7BE9031B04E603
(1741076324.364190) can0 726#05
(1741076324.365002) can0 18FF2701#0000007A01013031
(1741076324.365770) can0 18FF2301#FFFFFFFF08030001
(1741076324.366510) can0 18FF2101#0F000000000000FF
(1741076324.370176) can0 18FF0B00#BF027D7777782414
(1741076324.370772) can0 18FF1800#000016FFFFFFFFFC
(1741076324.371344) can0 18FE0300#1027022719270000
(1741076324.371918) can0 18FE0400#E503E7031B040000
(1741076324.374406) can0 0CFE00F3#00361F2700271427
(1741076324.374960) can0 0CFE01F3#5B7BE9031B04E603
(1741076324.380197) can0 18FF1800#000016FFFFFFFFFC
(1741076324.380772) can0 18FE0300#1027022719270000
(1741076324.381348) can0 18FE0400#E503E7031B040000
(1741076324.384234) can0 18FF2701#0000007A02013031
(1741076324.385405) can0 0CFE00F3#00361F2706271327
(1741076324.385958) can0 0CFE01F3#5B7BE9031B04E603
(1741076324.390177) can0 18FF0B00#BF027D7777782414
(1741076324.390773) can0 18FF1800#000016FFFFFFFFFC
(1741076324.391340) can0 18FE0300#102703271A270000
(1741076324.391913) can0 18FE0400#E503E7031B040000
(1741076324.396397) can0 0CFE00F3#0036222706271327
(1741076324.396952) can0 0CFE01F3#5B7BE9031B04E603
(1741076324.400136) can0 18FF0600#16265A7B1626E803
(1741076324.400734) can0 18FF1800#000016FFFFFFFFFC
(1741076324.401316) can0 18FE0300#112703271B270000
(1741076324.401878) can0 18FE0400#E503E7031B040000
(1741076324.404215) can0 18FF2701#0000007A02013031
(1741076324.407408) can0 0CFE00F3#0036192703271627
(1741076324.407963) can0 0CFE01F3#5B7BE9031B04E603
(1741076324.408527) can0 0CFE05F3#1FFE8B00D4011027
(1741076324.410235) can0 18FF0B00#BF027D7777782414
(1741076324.410830) can0 18FF1800#000016FFFFFFFFFC
(1741076324.411397) can0 18FE0300#112703271A270000
(1741076324.411969) can0 18FE0400#E503E7031B040000
(1741076324.417405) can0 0CFE00F3#003615270B271827
(1741076324.417959) can0 0CFE01F3#5B7BE9031B04E603
(1741076324.420230) can0 18FF1800#000016FFFFFFFFFC
(1741076324.420818) can0 18FE0300#122704271A270000
(1741076324.421377) can0 18FE0400#E503E7031B040000
(1741076324.424194) can0 18FF2701#0000007A02013031
(1741076324.427365) can0 18FF0220#F004FFFFFFFFFDFF
(1741076324.427965) can0 18FF0020#FFFF03030800C4FF
(1741076324.428510) can0 0CFE00F3#0036172706270F27
(1741076324.429066) can0 0CFE01F3#5B7BE9031B04E603
(1741076324.429646) can0 18FF0220#F00CFF003CFFFDFF
(1741076324.430265) can0 18FF0400#73030B9600F31808
(1741076324.430843) can0 18FF0B00#BF027D7777782414
(1741076324.431432) can0 18FF1800#000016FFFFFFFFFC
(1741076324.431996) can0 18FE0300#1227052719270000
(1741076324.432570) can0 18FE0400#E503E7031B040000
(1741076324.439403) can0 0CFE00F3#0036162700270D27
(1741076324.439961) can0 0CFE01F3#5B7BE8031B04E603
(1741076324.440552) can0 18FF0C00#0000A70000FFFFF0
(1741076324.441146) can0 18FF1800#000016FFFFFFFFFC
(1741076324.441713) can0 18FE0300#1227052719270000
(1741076324.442282) can0 18FE0400#E503E7031B040000
(1741076324.444175) can0 18FF2701#0000007A02013031
(1741076324.450184) can0 18FF0500#10100000000000C0
(1741076324.450713) can0 0CFE00F3#0036192702271227
(1741076324.451267) can0 0CFE01F3#5B7BE9031B04E603
(1741076324.451820) can0 18FF0600#16265A7B1626E803
(1741076324.452391) can0 18FF0B00#BF027D7777782414
(1741076324.452983) can0 18FF1800#000016FFFFFFFFFC
(1741076324.453455) can0 18FF0E00#01800C1626
(1741076324.454018) can0 18FE0300#1127042718270000
(1741076324.454590) can0 18FE0400#E503E7031B040000
(1741076324.460194) can0 18FF1800#000016FFFFFFFFFC
(1741076324.460766) can0 18FE0300#1127042718270000
(1741076324.461366) can0 18FE0400#E503E7031B040000
(1741076324.461887) can0 0CFE00F3#00361C2704271427
(1741076324.462453) can0 0CFE01F3#5B7BE9031B04E603
(1741076324.463020) can0 0CFE05F3#1FFE8B00D4011027
(1741076324.463569) can0 0CFE09F3#7703C4096F063116
(1741076324.464126) can0 0CFE10F3#0300363D00000000
(1741076324.464686) can0 0CFE02F3#4802050248000000
(1741076324.464918) can0 726#05
(1741076324.465657) can0 18FF2701#0000007A02013031
(1741076324.470170) can0 18FF0B00#BF027D7777782414
(1741076324.470764) can0 18FF1800#000016FFFFFFFFFC
(1741076324.471332) can0 18FE0300#1227042719270000
(1741076324.471878) can0 0CFE00F3#0036122707271127
(1741076324.472434) can0 0CFE01F3#5B7BE9031B04E603
(1741076324.473001) can0 18FE0400#E503E7031B040000
(1741076324.480196) can0 18FF1800#000016FFFFFFFFFC
(1741076324.480766) can0 18FE0300#1127052718270000
(1741076324.481356) can0 18FE0400#E503E7031B040000
(1741076324.482398) can0 0CFE00F3#0036182709271727
(1741076324.482954) can0 0CFE01F3#5B7BE9031B04E603
(1741076324.484136) can0 18FF2701#0000007A02013031
(1741076324.490176) can0 18FF0B00#BF027D7777782414
(1741076324.490771) can0 18FF1800#000016FFFFFFFFFC
(1741076324.491339) can0 18FE0300#1227052718270000
(1741076324.491913) can0 18FE0400#E503E7031B040000
(1741076324.493395) can0 0CFE00F3#00361C270D271427
(1741076324.493948) can0 0CFE01F3#5B7BE9031B04E603
(1741076324.500135) can0 18FF0600#16265A7B1626E803
(1741076324.500732) can0 18FF1800#000016FFFFFFFFFC
(1741076324.501315) can0 18FE0300#1227062718270000
(1741076324.501872) can0 18FE0400#E503E7031B040000
(1741076324.504113) can0 18FF2701#0000007A02013031
(1741076324.504669) can0 0CFE00F3#00361327FE260B27
(1741076324.505229) can0 0CFE01F3#5B7BE8031B04E603
(1741076324.510175) can0 18FF0B00#BF027D7777782414
(1741076324.510769) can0 18FF1800#000016FFFFFFFFFC
(1741076324.511332) can0 18FE0300#1127052717270000
(1741076324.511904) can0 18FE0400#E503E7031B040000
(1741076324.515409) can0 0CFE00F3#00361D2706271127
(1741076324.515965) can0 0CFE01F3#5B7BE9031B04E603
(1741076324.516521) can0 0CFE05F3#43FEA500E1011027
(1741076324.520149) can0 18FF3000#22F2010146020911
(1741076324.520745) can0 18FF1800#000016FFFFFFFFFC
(1741076324.521315) can0 18FE0300#1127052718270000
(1741076324.521885) can0 18FE0400#E503E7031B040000
(1741076324.524090) can0 18FF2701#0000007A03013031
(1741076324.525393) can0 0CFE00F3#00361A2703270F27
(1741076324.525949) can0 0CFE01F3#5B7BE9031B04E603
(1741076324.527394) can0 18FF0220#F004FFFFFFFFFDFF
(1741076324.527988) can0 18FF0020#FFFF03030800C4FF
(1741076324.528569) can0 18FF0220#F00CFF003CFFFDFF
(1741076324.530205) can0 18FF0400#73030B9600F31808
(1741076324.530781) can0 18FF0B00#BF027D7777782414
(1741076324.531372) can0 18FF1800#000016FFFFFFFFFC
(1741076324.531939) can0 18FE0300#1127052718270000
(1741076324.532513) can0 18FE0400#E503E7031B040000
(1741076324.536404) can0 0CFE00F3#0036232701271927
(1741076324.536957) can0 0CFE01F3#5B7BE9031B04E603
(1741076324.540169) can0 18FF0C00#0000A70000FFFFF0
(1741076324.540766) can0 18FF1800#000016FFFFFFFFFC
(1741076324.541348) can0 18FE0300#1227052719270000
(1741076324.541902) can0 18FE0400#E503E7031B040000
(1741076324.544096) can0 18FF2701#0000007A03013031
(1741076324.547425) can0 0CFE00F3#00361C2708271127
(1741076324.547972) can0 0CFE01F3#5B7BE9031B04E603
(1741076324.550220) can0 18FF0500#10100000000000C0
(1741076324.550771) can0 18FF0600#16265A7B1626E803
(1741076324.551332) can0 18FF0B00#BF027D7777782414
(1741076324.551920) can0 18FF1800#000016FFFFFFFFFC
(1741076324.552385) can0 18FF0E00#01800C1626
(1741076324.552948) can0 18FE0300#1227052719270000
(1741076324.553533) can0 18FE0400#E503E7031B040000
(1741076324.558397) can0 0CFE00F3#00361C27F9260B27
(1741076324.558950) can0 0CFE01F3#5B7BE9031B04E603
(1741076324.560263) can0 18FF1800#000016FFFFFFFFFC
(1741076324.560822) can0 18FE0300#1127062719270000
(1741076324.561395) can0 18FE0400#E503E7031B040000
(1741076324.563717) can0 726#05
(1741076324.564297) can0 18FF2701#0000007A03013031
(1741076324.569530) can0 0CFE00F3#00361B27FC261327
(1741076324.570084) can0 0CFE01F3#5B7BE9031B04E603
(1741076324.570638) can0 0CFE05F3#43FEA500E1011027
(1741076324.571191) can0 0CFE09F3#7503C4096E063116
(1741076324.571757) can0 0CFE10F3#0300363D00000000
(1741076324.572321) can0 0CFE02F3#4702050248000000
(1741076324.572890) can0 18FF0B00#BF027D7777782414
(1741076324.573484) can0 18FF1800#000016FFFFFFFFFC
(1741076324.574046) can0 18FE0300#1127042719270000
(1741076324.574621) can0 18FE0400#E503E7031B040000
(1741076324.579398) can0 0CFE00F3#00361B2706271127
(1741076324.579953) can0 0CFE01F3#5B7BE9031B04E603
(1741076324.580541) can0 18FF1800#000016FFFFFFFFFC
(1741076324.581104) can0 18FE0300#1127042719270000
(1741076324.581677) can0 18FE0400#E503E7031B040000
(1741076324.584034) can0 18FF2701#0000007A03013031
(1741076324.590175) can0 18FF0B00#BF027D7777782414
(1741076324.590716) can0 0CFE00F3#0036162703270D27
(1741076324.591273) can0 0CFE01F3#5B7BE9031B04E603
(1741076324.591861) can0 18FF1800#000016FFFFFFFFFC
(1741076324.592424) can0 18FE0300#1127042719270000
(1741076324.592997) can0 18FE0400#E503E7031B040000
(1741076324.600134) can0 18FF0600#16265A7B1626E803
(1741076324.600731) can0 18FF1800#000016FFFFFFFFFC
(1741076324.601316) can0 18FE0300#1027042719270000
(1741076324.601884) can0 0CFE00F3#0036162700271927
(1741076324.602412) can0 0CFE01F3#5B7BE9031B04E603
(1741076324.602981) can0 18FE0400#E503E7031B040000
(1741076324.604010) can0 18FF2701#0000007A03013031
(1741076324.610167) can0 18FF0B00#BF027D7777782414
(1741076324.610762) can0 18FF1800#000016FFFFFFFFFC
(1741076324.611325) can0 18FE0300#1127032719270000
(1741076324.611899) can0 18FE0400#E503E7031B040000
(1741076324.612450) can0 0CFE00F3#00361B2700270E27
(1741076324.613006) can0 0CFE01F3#5B7BE9031B04E603
(1741076324.620191) can0 18FF1800#000016FFFFFFFFFC
(1741076324.620758) can0 18FE0300#1127032719270000
(1741076324.621346) can0 18FE0400#E503E7031B040000
(1741076324.623414) can0 0CFE00F3#00361E2706271727
(1741076324.623971) can0 0CFE01F3#5B7BE9031B04E603
(1741076324.624529) can0 0CFE05F3#1CFEAA00A7011027
(1741076324.625097) can0 18FF2701#0000007A03013031
(1741076324.627368) can0 18FF0220#F004FFFFFFFFFDFF
(1741076324.627960) can0 18FF0020#FFFF03030800C4FF
(1741076324.628558) can0 18FF0220#F00CFF003CFFFDFF
(1741076324.629148) can0 18FF4020#0000FFFFFFFFFFFF
(1741076324.630228) can0 18FF0400#73030B9600F31808
(1741076324.630807) can0 18FF0B00#BF027D7777782414
(1741076324.631395) can0 18FF1800#000016FFFFFFFFFC
(1741076324.631959) can0 18FE0300#1127042719270000
(1741076324.632533) can0 18FE0400#E503E7031B040000
(1741076324.633412) can0 0CFE00F3#0036182700270727
(1741076324.633965) can0 0CFE01F3#5B7BE9031B04E603
(1741076324.640172) can0 18FF0C00#0000A70000FFFFF0
(1741076324.640770) can0 18FF1800#000016FFFFFFFFFC
(1741076324.641362) can0 18FE0300#1027032719270000
(1741076324.641912) can0 18FE0400#E503E7031B040000
(1741076324.643974) can0 18FF2701#0000007A03013031
(1741076324.644514) can0 0CFE00F3#0036222709271C27
(1741076324.645070) can0 0CFE01F3#5B7BE9031B04E603
(1741076324.650163) can0 18FF2A00#3500000000000000
(1741076324.650784) can0 18FF1700#00000000C7006411
(1741076324.651325) can0 18FFA100#00600A0000005220
(1741076324.651917) can0 18FF0500#10100000000000C0
(1741076324.652476) can0 18FF0600#16265A7B1626E803
(1741076324.653058) can0 18FF0800#4000001027000F7B
(1741076324.653631) can0 18FF0900#28285F062830801B
(1741076324.654201) can0 18FF0B00#BF027D7777782414
(1741076324.654797) can0 18FF1600#0000000000000000
(1741076324.655389) can0 18FF1800#000016FFFFFFFFFC
(1741076324.655939) can0 0CFE00F3#00361C2706271127
(1741076324.656497) can0 0CFE01F3#5B7BE9031B04E603
(1741076324.657079) can0 18FF3900#0600000300000000
(1741076324.657653) can0 18FF0A00#64FF8811B80BFFFF
(1741076324.658127) can0 18FF0E00#01800C1626
(1741076324.658691) can0 18FE0300#112704271A270000
(1741076324.659268) can0 18FE0400#E503E7031B040000
(1741076324.660341) can0 18FF1800#000016FFFFFFFFFC
(1741076324.660907) can0 18FE0300#112704271A270000
(1741076324.661485) can0 18FE0400#E503E7031B040000
(1741076324.663204) can0 18FF0D00#7A3E96662438C7F0
(1741076324.663612) can0 726#05
(1741076324.664198) can0 18FF2701#0000007A04023031
(1741076324.666389) can0 0CFE00F3#00361A2705271327
(1741076324.666947) can0 0CFE01F3#5B7BE9031B04E603
(1741076324.670166) can0 18FF0B00#BF027D7777782414
(1741076324.670762) can0 18FF1800#000016FFFFFFFFFC
(1741076324.671325) can0 18FE0300#112704271A270000
(1741076324.671897) can0 18FE0400#E503E7031B040000
(1741076324.677409) can0 0CFE00F3#003617270E271227
(1741076324.677962) can0 0CFE01F3#5B7BE9031B04E603
(1741076324.678522) can0 0CFE05F3#1CFEAA00A7011027
(1741076324.679070) can0 0CFE09F3#7503C4096F063116
(1741076324.679636) can0 0CFE10F3#0300363D00000000
(1741076324.680200) can0 0CFE02F3#4702050248000000
(1741076324.680790) can0 18FF1800#000016FFFFFFFFFC
(1741076324.681361) can0 18FE0300#1127052719270000
(1741076324.681930) can0 18FE0400#E503E7031B040000
(1741076324.683931) can0 18FF2701#0000007A04023031
(1741076324.687386) can0 0CFE00F3#00361B2707270A27
(1741076324.687943) can0 0CFE01F3#5B7BE9031B04E603
(1741076324.690200) can0 18FF0B00#BF027D7777782414
(1741076324.690795) can0 18FF1800#000016FFFFFFFFFC
(1741076324.691358) can0 18FE0300#1127062719270000
(1741076324.691931) can0 18FE0400#E503E7031B040000
(1741076324.698391) can0 0CFE00F3#0036212705270D27
(1741076324.698942) can0 0CFE01F3#5B7BE9031B04E703
(1741076324.700178) can0 18FF0600#1626597B1626E803
(1741076324.700776) can0 18FF1800#000016FFFFFFFFFC
(1741076324.701347) can0 18FE0300#1027062719270000
(1741076324.701915) can0 18FE0400#E503E7031B040000
(1741076324.703905) can0 18FF2701#0000007A04013031
(1741076324.709394) can0 0CFE00F3#0036172710270627
(1741076324.709948) can0 0CFE01F3#5B7BE9031B04E603
(1741076324.710516) can0 18FF0B00#BF027D7777782414
(1741076324.711107) can0 18FF1800#000016FFFFFFFFFC
(1741076324.711675) can0 18FE0300#102706271A270000
(1741076324.712257) can0 18FE0400#E603E7031B040000
(1741076324.720176) can0 18FF1800#000016FFFFFFFFFC
(1741076324.720720) can0 0CFE00F3#00361A2706271127
(1741076324.721276) can0 0CFE01F3#5B7BE9031B04E603
(1741076324.721845) can0 18FE0300#0F2707271A270000
(1741076324.722424) can0 18FE0400#E603E7031B040000
(1741076324.723886) can0 18FF2701#0000007A04013031
(1741076324.727409) can0 18FF0220#F004FFFFFFFFFDFF
(1741076324.728009) can0 18FF0020#FFFF03030800C4FF
(1741076324.728592) can0 18FF0220#F00CFF003CFFFDFF
(1741076324.730193) can0 18FF0400#73030B9600F31808
(1741076324.730768) can0 18FF0B00#BF027C7777782414
(1741076324.731358) can0 18FF1800#000016FFFFFFFFFC
(1741076324.731905) can0 0CFE00F3#0036142706270E27
(1741076324.732462) can0 0CFE01F3#5B7BE9031B04E603
(1741076324.733021) can0 0CFE05F3#21FE7A00C0011027
(1741076324.733583) can0 18FE0300#0F27072719270000
(1741076324.734164) can0 18FE0400#E603E7031B040000
(1741076324.740158) can0 18FF0C00#0000A70000FFFFF0
(1741076324.740755) can0 18FF1800#000016FFFFFFFFFC
(1741076324.741331) can0 18FE0300#0F27072719270000
(1741076324.741863) can0 0CFE00F3#0036172703271127
(1741076324.742420) can0 0CFE01F3#5B7BE9031B04E603
(1741076324.742994) can0 18FE0400#E603E7031B040000
(1741076324.743865) can0 18FF2701#0000007A04013031
(1741076324.750156) can0 18FF0500#10100000000000C0
(1741076324.750719) can0 18FF0600#1626597B1626E803
(1741076324.751297) can0 18FF0B00#BF027C7777782414
(1741076324.751894) can0 18FF1800#000016FFFFFFFFFC
(1741076324.752429) can0 0CFE00F3#0036192701271427
(1741076324.752984) can0 0CFE01F3#5B7BE9031B04E603
(1741076324.753448) can0 18FF0E00#01800C1626
(1741076324.754013) can0 18FE0300#0F27062718270000
(1741076324.754592) can0 18FE0400#E603E7031B040000
(1741076324.760188) can0 18FF1800#000016FFFFFFFFFC
(1741076324.760756) can0 18FE0300#0F27062718270000
(1741076324.761358) can0 18FE0400#E603E7031B040000
(1741076324.763389) can0 0CFE00F3#00361A2707270A27
(1741076324.763948) can0 0CFE01F3#5B7BE8031B04E603
(1741076324.764181) can0 726#05
(1741076324.764845) can0 18FF2701#0000007A04013031
(1741076324.770148) can0 18FF3000#21F2010101010101
(1741076324.770722) can0 18FF0B00#BF027D7777782414
(1741076324.771313) can0 18FF1800#000016FFFFFFFFFC
(1741076324.771880) can0 18FE0300#0F27062718270000
(1741076324.772461) can0 18FE0400#E603E7031B040000
(1741076324.774385) can0 0CFE00F3#003619270A270727
(1741076324.774945) can0 0CFE01F3#5B7BE8031B04E603
(1741076324.780182) can0 18FF1800#000016FFFFFFFFFC
(1741076324.780753) can0 18FE0300#0E27072718270000
(1741076324.781355) can0 18FE0400#E603E7031B040000
(1741076324.783828) can0 18FF2701#0000007A04013031
(1741076324.785514) can0 0CFE00F3#00361E2702271727
(1741076324.786067) can0 0CFE01F3#5B7BE9031B04E603
(1741076324.786627) can0 0CFE05F3#21FE7A00C0011027
(1741076324.787179) can0 0CFE09F3#7403C4096F063116
(1741076324.787751) can0 0CFE10F3#0300363D00000000
(1741076324.788310) can0 0CFE02F3#4702050248000000
(1741076324.790227) can0 18FF0B00#BF027D7777782414
(1741076324.790822) can0 18FF1800#000016FFFFFFFFFC
(1741076324.791390) can0 18FE0300#0F27062719270000
(1741076324.791970) can0 18FE0400#E603E7031B040000
(1741076324.795382) can0 0CFE00F3#003618270A271927
(1741076324.795938) can0 0CFE01F3#5B7BE9031B04E603
(1741076324.800128) can0 18FF0600#16265A7B1626E803
(1741076324.800724) can0 18FF1800#000016FFFFFFFFFC
(1741076324.801290) can0 18FE0300#1027072719270000
(1741076324.801872) can0 18FE0400#E603E7031B040000
(1741076324.803808) can0 18FF2701#0000007A05013031
(1741076324.806380) can0 0CFE00F3#0036192709271627
(1741076324.806940) can0 0CFE01F3#5B7BE8031B04E603
(1741076324.810165) can0 18FF0B00#BF027D7777782414
(1741076324.810755) can0 18FF1800#000016FFFFFFFFFC
(1741076324.811324) can0 18FE0300#1027072719270000
(1741076324.811903) can0 18FE0400#E603E7031B040000
(1741076324.817392) can0 0CFE00F3#00361427FF261127
(1741076324.817948) can0 0CFE01F3#5B7BE9031B04E603
(1741076324.820204) can0 18FF1800#000016FFFFFFFFFC
(1741076324.820783) can0 18FE0300#1027062718270000
(1741076324.821363) can0 18FE0400#E603E7031B040000
(1741076324.823790) can0 18FF2701#0000007A05013031
(1741076324.827369) can0 18FF0220#F004FFFFFFFFFDFF
(1741076324.827964) can0 18FF0020#FFFF03030800C4FF
(1741076324.828510) can0 0CFE00F3#003618270B271C27
(1741076324.829065) can0 0CFE01F3#5B7BE9031B04E603
(1741076324.829646) can0 18FF0220#F00CFF003CFFFDFF
(1741076324.830244) can0 18FF0400#73030B9600F31808
(1741076324.830822) can0 18FF0B00#BF027D7777782414
(1741076324.831413) can0 18FF1800#000016FFFFFFFFFC
(1741076324.831979) can0 18FE0300#1027052717270000
(1741076324.832561) can0 18FE0400#E603E7031B040000
(1741076324.839392) can0 0CFE00F3#0036192702271527
(1741076324.839953) can0 0CFE01F3#5B7BE8031B04E603
(1741076324.840504) can0 0CFE05F3#45FEB200DB011027
(1741076324.841096) can0 18FF0C00#0000A70000FFFFF0
(1741076324.841688) can0 18FF1800#000016FFFFFFFFFC
(1741076324.842252) can0 18FE0300#1127062717270000
(1741076324.842832) can0 18FE0400#E603E7031B040000
(1741076324.843771) can0 18FF2701#0000007A05013031
(1741076324.849393) can0 0CFE00F3#00361427FF261427
(1741076324.849952) can0 0CFE01F3#5B7BE9031B04E603
(1741076324.850545) can0 18FF0500#10100000000000C0
(1741076324.851093) can0 18FF0600#1626597B1626E803
(1741076324.851662) can0 18FF0B00#BF027D7777782414
(1741076324.852251) can0 18FF1800#000016FFFFFFFFFC
(1741076324.852719) can0 18FF0E00#01800C1626
(1741076324.853287) can0 18FE0300#1227062717270000
(1741076324.853877) can0 18FE0400#E603E7031B040000
(1741076324.860183) can0 18FF1800#000016FFFFFFFFFC
(1741076324.860739) can0 0CFE00F3#00361A2701270F27
(1741076324.861322) can0 0CFE01F3#5B7BE8031B04E603
(1741076324.861855) can0 18FE0300#1227052717270000
(1741076324.862433) can0 18FE0400#E603E7031B040000
(1741076324.863419) can0 726#05
(1741076324.864004) can0 18FF2701#0000007A05013031
(1741076324.870163) can0 18FF0B00#BF027D7777782414
(1741076324.870759) can0 18FF1800#000016FFFFFFFFFC
(1741076324.871322) can0 18FE0300#1227052717270000
(1741076324.871864) can0 0CFE00F3#003616270A270F27
(1741076324.872419) can0 0CFE01F3#5B7BE9031B04E603
(1741076324.872996) can0 18FE0400#E603E7031B040000
(1741076324.880186) can0 18FF1800#000016FFFFFFFFFC
(1741076324.880781) can0 18FE0300#1127052717270000
(1741076324.881345) can0 18FE0400#E603E7031B040000
(1741076324.882396) can0 0CFE00F3#0036192700270D27
(1741076324.882950) can0 0CFE01F3#5B7BE9031B04E603
(1741076324.883732) can0 18FF2701#0000007A05003031
(1741076324.890158) can0 18FF0B00#BF027D7777782414
(1741076324.890753) can0 18FF1800#000016FFFFFFFFFC
(1741076324.891315) can0 18FE0300#1127052717270000
(1741076324.891897) can0 18FE0400#E603E7031B040000
(1741076324.893409) can0 0CFE00F3#00361A2702271227
(1741076324.893959) can0 0CFE01F3#5B7BE9031C04E603
(1741076324.894511) can0 0CFE05F3#45FEB200DB011027
(1741076324.895058) can0 0CFE09F3#7203C4096E063116
(1741076324.895624) can0 0CFE10F3#0300363D00000000
(1741076324.896188) can0 0CFE02F3#4702050248000000
(1741076324.900124) can0 18FF0600#1626597B1626E803
(1741076324.900720) can0 18FF1800#000016FFFFFFFFFC
(1741076324.901281) can0 18FE0300#1127052717270000
(1741076324.901862) can0 18FE0400#E603E7031B040000
(1741076324.903394) can0 0CFE00F3#003617270C271827
(1741076324.903948) can0 0CFE01F3#5B7BE9031B04E603
(1741076324.904519) can0 18FF2701#0000007A05003031
(1741076324.910159) can0 18FF0B00#BF027D7777782414
(1741076324.910752) can0 18FF1800#000016FFFFFFFFFC
(1741076324.911314) can0 18FE0300#1227052717270000
(1741076324.911896) can0 18FE0400#E603E7031B040000
(1741076324.914391) can0 0CFE00F3#00362227FD261327
(1741076324.914955) can0 0CFE01F3#5B7BE8031B04E603
(1741076324.920178) can0 18FF1800#000016FFFFFFFFFC
(1741076324.920750) can0 18FE0300#1227052718270000
(1741076324.921349) can0 18FE0400#E603E7031B040000
(1741076324.923693) can0 18FF2701#0000007A05013031
(1741076324.925395) can0 0CFE00F3#0036162700270A27
(1741076324.925946) can0 0CFE01F3#5B7BE9031B04E603
(1741076324.927391) can0 18FF0220#F004FFFFFFFFFDFF
(1741076324.927997) can0 18FF0020#FFFF03030800C4FF
(1741076324.928578) can0 18FF0220#F00CFF003CFFFDFF
(1741076324.930194) can0 18FF0400#73030B9600F31808
(1741076324.930769) can0 18FF0B00#C0027D7777782414
(1741076324.931357) can0 18FF1800#000016FFFFFFFFFC
(1741076324.931925) can0 18FE0300#1127042718270000
(1741076324.932505) can0 18FE0400#E603E7031B040000
(1741076324.936391) can0 0CFE00F3#0036222706270D27
(1741076324.936946) can0 0CFE01F3#5B7BE9031B04E603
(1741076324.940159) can0 18FF0C00#0000A70000FFFFF0
(1741076324.940753) can0 18FF1800#000016FFFFFFFFFC
(1741076324.941340) can0 18FE0300#1027042719270000
(1741076324.941907) can0 18FE0400#E603E7031B040000
(1741076324.943676) can0 18FF2701#0000007A05013031
(1741076324.947395) can0 0CFE00F3#0036192702270D27
(1741076324.947953) can0 0CFE01F3#5B7BE9031B04E603
(1741076324.948511) can0 0CFE05F3#09FEB30095011027
(1741076324.950211) can0 18FF0500#10100000000000C0
(1741076324.950774) can0 18FF0600#1626597B1626E803
(1741076324.951339) can0 18FF0B00#C0027C7777782414
(1741076324.951931) can0 18FF1800#000016FFFFFFFFFC
(1741076324.952397) can0 18FF0E00#01800C1626
(1741076324.952973) can0 18FE0300#1027042718270000
(1741076324.953560) can0 18FE0400#E603E7031B040000
(1741076324.957404) can0 0CFE00F3#00361627FB260F27
(1741076324.957955) can0 0CFE01F3#5B7BE9031B04E603
(1741076324.960218) can0 18FF1800#000016FFFFFFFFFC
(1741076324.960795) can0 18FE0300#1027032718270000
(1741076324.961382) can0 18FE0400#E603E7031B040000
(1741076324.963318) can0 726#05
(1741076324.963903) can0 18FF2701#0000007A05013031
(1741076324.968404) can0 0CFE00F3#003618270627FF26
(1741076324.968956) can0 0CFE01F3#5B7BE8031B04E703
(1741076324.970219) can0 18FF0B00#C0027C7777782414
(1741076324.970813) can0 18FF1800#000016FFFFFFFFFC
(1741076324.971390) can0 18FE0300#1027032718270000
(1741076324.971970) can0 18FE0400#E603E7031B040000
(1741076324.979394) can0 0CFE00F3#00361727FE260327
(1741076324.979949) can0 0CFE01F3#5B7BE9031B04E603
(1741076324.980537) can0 18FF1800#000016FFFFFFFFFC
(1741076324.981106) can0 18FE0300#0E27032718270000
(1741076324.981687) can0 18FE0400#E603E7031B040000
(1741076324.983632) can0 18FF2701#0000007A06013031
(1741076324.990160) can0 18FF0B00#C0027D7777782414
(1741076324.990703) can0 0CFE00F3#00361327FB261127
(1741076324.991260) can0 0CFE01F3#5B7BE9031B04E603
(1741076324.991847) can0 18FF1800#000016FFFFFFFFFC
(1741076324.992411) can0 18FE0300#0D27032717270000
(1741076324.992991) can0 18FE0400#E603E7031B040000
(1741076325.000121) can0 18FF0600#1626597B1626E803
(1741076325.000715) can0 18FF1800#000016FFFFFFFFFC
(1741076325.001285) can0 18FE0300#0D27022717270000
(1741076325.001835) can0 0CFE00F3#00361F2701271627
(1741076325.002393) can0 0CFE01F3#5B7BE9031B04E603
(1741076325.002952) can0 0CFE05F3#09FEB30095011027
(1741076325.003503) can0 0CFE09F3#7203C4096F063016
(1741076325.004071) can0 0CFE10F3#0300363D00000000
(1741076325.004634) can0 0CFE02F3#4802050248000000
(1741076325.005211) can0 18FE0400#E603E7031B040000
(1741076325.005781) can0 18FF2701#0000007A06013031
(1741076325.010160) can0 18FF0B00#C0027D7777782414
(1741076325.010750) can0 18FF1800#000016FFFFFFFFFC
(1741076325.011322) can0 18FE0300#0E27022718270000
(1741076325.011874) can0 0CFE00F3#00361C27FC261127
(1741076325.012426) can0 0CFE01F3#5B7BE9031B04E703
(1741076325.013002) can0 18FE0400#E603E7031B040000
(1741076325.020133) can0 18FF3000#22F2010146020911
(1741076325.020729) can0 18FF1800#000016FFFFFFFFFC
(1741076325.021314) can0 18FE0300#0E27012718270000
(1741076325.021878) can0 18FE0400#E603E7031B040000
(1741076325.022429) can0 0CFE00F3#00361927FE260D27
(1741076325.022982) can0 0CFE01F3#5B7BE9031B04E703
(1741076325.023590) can0 18FF2701#0000007A06013031
(1741076325.027385) can0 18FF0220#F004FFFFFFFFFDFF
(1741076325.027988) can0 18FF0020#FFFF03030800C4FF
(1741076325.028607) can0 18FF0220#F00CFF003CFFFDFF
(1741076325.029220) can0 18FF4020#0000FFFFFFFFFFFF
(1741076325.030226) can0 18FF0400#73030B9600F31808
(1741076325.030798) can0 18FF0B00#C0027D7777782414
(1741076325.031387) can0 18FF1800#000016FFFFFFFFFC
(1741076325.031956) can0 18FE0300#0E27012718270000
(1741076325.032537) can0 18FE0400#E603E7031B040000
(1741076325.033392) can0 0CFE00F3#0036192700271027
(1741076325.033949) can0 0CFE01F3#5B7BE9031B04E603
(1741076325.040157) can0 18FF0C00#0000A70000FFFFF0
(1741076325.040753) can0 18FF1800#000016FFFFFFFFFC
(1741076325.041341) can0 18FE0300#0E27012718270000
(1741076325.041901) can0 18FE0400#E603E7031B040000
(1741076325.043572) can0 18FF2701#0000007A06013031
(1741076325.044390) can0 0CFE00F3#00361B2703271127
(1741076325.044947) can0 0CFE01F3#5B7BE9031B04E603
(1741076325.050160) can0 18FF0500#10100000000000C0
(1741076325.050720) can0 18FF0600#1626597B1626E803
(1741076325.051290) can0 18FF0B00#C0027C7777782414
(1741076325.051879) can0 18FF1800#000016FFFFFFFFFC
(1741076325.052345) can0 18FF0E00#01800C1626
(1741076325.052913) can0 18FE0300#0E27012718270000
(1741076325.053502) can0 18FE0400#E603E7031B040000
(1741076325.055394) can0 0CFE00F3#0036162706270D27
(1741076325.055952) can0 0CFE01F3#5B7BE9031B04E603
(1741076325.056515) can0 0CFE05F3#20FE7100DF011027
(1741076325.060184) can0 18FF1800#000016FFFFFFFFFC
(1741076325.060757) can0 18FE0300#0E27022718270000
(1741076325.061368) can0 18FE0400#E603E7031B040000
(1741076325.063218) can0 726#05
(1741076325.063798) can0 18FF2701#0000007A06013031
(1741076325.065389) can0 0CFE00F3#0036152708271427
(1741076325.065947) can0 0CFE01F3#5B7BE8031B04E603
(1741076325.070152) can0 18FF0B00#C0027D7777782414
(1741076325.070745) can0 18FF1800#000016FFFFFFFFFC
(1741076325.071308) can0 18FE0300#0F27022717270000
(1741076325.071890) can0 18FE0400#E603E7031B040000
(1741076325.076388) can0 0CFE00F3#0036162704270427
(1741076325.076943) can0 0CFE01F3#5B7BE9031B04E603
(1741076325.080175) can0 18FF1800#000016FFFFFFFFFC
(1741076325.080746) can0 18FE0300#0E27032717270000
(1741076325.081349) can0 18FE0400#E603E7031B040000
(1741076325.083532) can0 18FF2701#0000007A06013031
(1741076325.087383) can0 0CFE00F3#0036162703270B27
(1741076325.087939) can0 0CFE01F3#5B7BE9031B04E603
(1741076325.090185) can0 18FF0B00#C0027D7777782414
(1741076325.090780) can0 18FF1800#000016FFFFFFFFFC
(1741076325.091342) can0 18FE0300#0D27032717270000
(1741076325.091922) can0 18FE0400#E603E7031B040000
(1741076325.098383) can0 0CFE00F3#0036172703272527
(1741076325.098941) can0 0CFE01F3#5B7BE9031B04E603
(1741076325.100206) can0 18FF0600#16265A7B1626E803
(1741076325.100788) can0 18FF1800#000016FFFFFFFFFC
(1741076325.101366) can0 18FE0300#0D27032717270000
(1741076325.101918) can0 18FE0400#E603E7031B040000
(1741076325.103516) can0 18FF2701#0000007A06013031
(1741076325.109406) can0 0CFE00F3#003613270A270827
(1741076325.109966) can0 0CFE01F3#5B7BE8031B04E603
(1741076325.110521) can0 0CFE05F3#42FEC000D3011027
(1741076325.111069) can0 0CFE09F3#7503C4096F063116
(1741076325.111636) can0 0CFE10F3#0300363D00000000
(1741076325.112204) can0 0CFE02F3#4602050248000000
(1741076325.112769) can0 18FF0B00#C0027D7777782414
(1741076325.113368) can0 18FF1800#000016FFFFFFFFFC
(1741076325.113927) can0 18FE0300#0F27032717270000
(1741076325.114508) can0 18FE0400#E603E7031B040000
(1741076325.119385) can0 0CFE00F3#00361B2709271727
(1741076325.119940) can0 0CFE01F3#5B7BE9031B04E603
(1741076325.120558) can0 18FF1800#000016FFFFFFFFFC
(1741076325.121091) can0 18FE0300#0F27042716270000
(1741076325.121673) can0 18FE0400#E603E7031B040000
(1741076325.123491) can0 18FF2701#0000007A07013031
(1741076325.127365) can0 18FF0220#F004FFFFFFFFFDFF
(1741076325.127969) can0 18FF0020#FFFF03030800C4FF
(1741076325.128553) can0 18FF0220#F00CFF003CFFFDFF
(1741076325.130197) can0 18FF0400#73030B9600F31808
(1741076325.130748) can0 0CFE00F3#00361B2703271427
(1741076325.131299) can0 0CFE01F3#5B7BE9031B04E603
(1741076325.131862) can0 18FF0B00#C0027D7777782414
(1741076325.132453) can0 18FF1800#000016FFFFFFFFFC
(1741076325.133016) can0 18FE0300#0F27042716270000
(1741076325.133603) can0 18FE0400#E603E7031B040000
(1741076325.140154) can0 18FF0C00#0000A70000FFFFF0
(1741076325.140745) can0 18FF1800#000016FFFFFFFFFC
(1741076325.141324) can0 18FE0300#1027042717270000
(1741076325.141859) can0 0CFE00F3#00361B2708270A27
(1741076325.142416) can0 0CFE01F3#5B7BE8031B04E603
(1741076325.142994) can0 18FE0400#E603E7031B040000
(1741076325.143561) can0 18FF2701#0000007A07013031
(1741076325.150148) can0 18FF2A00#3500000000000000
(1741076325.150743) can0 18FF0500#10100000000000C0
(1741076325.151302) can0 18FF0600#16265A7B1626E803
(1741076325.151885) can0 18FF0800#4000001027000F7B
(1741076325.152428) can0 0CFE00F3#0036122702271127
(1741076325.152989) can0 0CFE01F3#5B7BE8031B04E603
(1741076325.153561) can0 18FF0900#28285F062830801B
(1741076325.154130) can0 18FF0B00#C0027D7777782414
(1741076325.154721) can0 18FF1800#000016FFFFFFFFFC
(1741076325.155187) can0 18FF0E00#01800C1626
(1741076325.155751) can0 18FE0300#0F27052717270000
(1741076325.156332) can0 18FE0400#E603E7031B040000
(1741076325.160176) can0 18FF1800#000016FFFFFFFFFC
(1741076325.160743) can0 18FE0300#0F27042716270000
(1741076325.161345) can0 18FE0400#E603E7031B040000
(1741076325.163392) can0 0CFE00F3#00361F2709271327
(1741076325.163943) can0 0CFE01F3#5B7BE9031C04E603
(1741076325.164499) can0 0CFE05F3#42FEC000D3011027
(1741076325.164731) can0 726#05
(1741076325.165455) can0 18FF2701#0000007A07013031
(1741076325.170145) can0 18FF0B00#C0027D7777782414
(1741076325.170740) can0 18FF1800#000016FFFFFFFFFC
(1741076325.171308) can0 18FE0300#1027052717270000
(1741076325.171890) can0 18FE0400#E603E7031B040000
(1741076325.173384) can0 0CFE00F3#0036172703271227
(1741076325.173940) can0 0CFE01F3#5B7BE9031B04E603
(1741076325.180175) can0 18FF1800#000016FFFFFFFFFC
(1741076325.180746) can0 18FE0300#1027052717270000
(1741076325.181351) can0 18FE0400#E603E7031B040000
(1741076325.183436) can0 18FF2701#0000007A07023031
(1741076325.184382) can0 0CFE00F3#0036142704271427
(1741076325.184943) can0 0CFE01F3#5B7BE8031B04E603
(1741076325.190151) can0 18FF0B00#C0027D7777782414
(1741076325.190747) can0 18FF1800#000016FFFFFFFFFC
(1741076325.191314) can0 18FE0300#1027052717270000
(1741076325.191895) can0 18FE0400#E603E7031B040000
(1741076325.195387) can0 0CFE00F3#0036162700271427
(1741076325.195945) can0 0CFE01F3#5B7BE9031B04E603
(1741076325.200121) can0 18FF0600#16265A7B1626E803
(1741076325.200717) can0 18FF1800#000016FFFFFFFFFC
(1741076325.201286) can0 18FE0300#1027042716270000
(1741076325.201870) can0 18FE0400#E603E7031B040000
(1741076325.203414) can0 18FF2701#0000007A07013031
(1741076325.206388) can0 0CFE00F3#00361C2700270E27
(1741076325.206944) can0 0CFE01F3#5B7BE9031B04E603
(1741076325.210152) can0 18FF0B00#C0027D7777782414
(1741076325.210749) can0 18FF1800#000016FFFFFFFFFC
(1741076325.211315) can0 18FE0300#1027042717270000
(1741076325.211896) can0 18FE0400#E603E7031B040000
(1741076325.217517) can0 0CFE00F3#0036142707271127
(1741076325.218073) can0 0CFE01F3#5B7BE9031B04E603
(1741076325.218629) can0 0CFE05F3#F1FD960089011027
(1741076325.219176) can0 0CFE09F3#7203C4096F063116
(1741076325.219745) can0 0CFE10F3#0300363D00000000
(1741076325.220311) can0 0CFE02F3#4602050248000000
(1741076325.220901) can0 18FF1800#000016FFFFFFFFFC
(1741076325.221476) can0 18FE0300#1027042716270000
