(1741076327.798326) can0 0CFE00F3#0036142701270D27
(1741076327.787318) can0 0CFE00F3#00361A270B270D27
(1741076327.780656) can0 18FE0300#0F2709271B270000
(1741076327.771782) can0 18FE0300#0F2708271A270000
(1741076327.765326) can0 0CFE00F3#0036182709271427
(1741076327.755331) can0 0CFE00F3#003626270F270727
(1741076327.711778) can0 0CFE00F3#00361D2707270A27
(1741076327.679319) can0 0CFE00F3#00361F2709271227
(1741076327.656359) can0 18FE0300#0E27052717270000
(1741076327.636323) can0 0CFE00F3#0036202704271927
(1741076327.595685) can0 0CFE10F3#0300373D00000000
(1741076327.571795) can0 0CFE00F3#0036202700270C27
(1741076327.560644) can0 0CFE00F3#003619270F271627
(1741076327.549375) can0 0CFE00F3#0036152706270C27
(1741076327.532484) can0 18FE0300#1127052716270000
(1741076327.528479) can0 0CFE00F3#00361C2704270827
(1741076327.521251) can0 18FF2701#0000017A15003031
(1741076327.506330) can0 0CFE00F3#00361C270B271027
(1741076327.501770) can0 18FE0300#1127032717270000
(1741076327.501211) can0 18FF2701#0000017A14003031
(1741076327.495336) can0 0CFE00F3#00361427FE260A27
(1741076327.474334) can0 0CFE00F3#0036162706271A27
(1741076327.441789) can0 0CFE00F3#0036172706270C27
(1741076327.431815) can0 0CFE00F3#0036222709271227
(1741076327.420650) can0 0CFE00F3#0036152703271927
(1741076327.398323) can0 0CFE00F3#003619270D271227
(1741076327.387335) can0 0CFE00F3#00361F27FD260D27
(1741076327.378565) can0 0CFE05F3#C7FD3C00AE011027
(1741076327.377452) can0 0CFE00F3#00361B270A270D27
(1741076327.352832) can0 18FE0300#1227012718270000
(1741076327.323338) can0 0CFE00F3#00361F27FA261127
(1741076327.320676) can0 18FE0300#1127022716270000
(1741076327.312369) can0 0CFE00F3#0036122706270D27
(1741076327.290634) can0 0CFE00F3#00361727FD261227
(1741076327.279331) can0 0CFE00F3#0036112700271527
(1741076327.269358) can0 0CFE00F3#00361A27FE261427
(1741076327.258348) can0 0CFE00F3#00361027FD261027
(1741076327.215356) can0 0CFE00F3#00361A27FF261727
(1741076327.204341) can0 0CFE00F3#00361A27FF261227
(1741076327.191257) can0 18FE0300#0E27042717270000
(1741076327.182390) can0 0CFE00F3#0036152702270727
(1741076327.171819) can0 0CFE00F3#0036152704271027
(1741076327.139333) can0 0CFE00F3#0036132704271727
(1741076327.128494) can0 0CFE00F3#00361D2700271827
(1741076327.107348) can0 0CFE00F3#0036212701271027
(1741076327.096344) can0 0CFE00F3#00361C2703271027
(1741076327.074331) can0 0CFE00F3#00361C2702271A27
(1741076327.053419) can0 0CFE00F3#0036192709270F27
(1741076327.020631) can0 0CFE00F3#0036192705271427
(1741076327.690616) can0 0CFE00F3#00371A270D270D27
(1741076327.009381) can0 0CFE00F3#00361C2704270027
(1741076326.999380) can0 0CFE00F3#00361E270E270F27
(1741076326.945474) can0 0CFE00F3#0036152700271327
(1741076326.934337) can0 0CFE00F3#00361A2709270E27
(1741076326.880662) can0 0CFE00F3#0036212702271427
(1741076326.858341) can0 0CFE00F3#0036172710271027
(1741076326.847338) can0 0CFE00F3#003616270E270F27
(1741076326.837358) can0 0CFE00F3#0036162703270727
(1741076326.804343) can0 0CFE00F3#0036112703271427
(1741076326.772369) can0 0CFE00F3#0036102704270627
(1741076326.761820) can0 0CFE00F3#00361B270B271027
(1741076326.707353) can0 0CFE00F3#00361A2704271027
(1741076326.675349) can0 0CFE00F3#003621270E271427
(1741076326.664354) can0 0CFE00F3#00361F27FF261427
(1741076326.653541) can0 0CFE00F3#0036192701271027
(1741076327.236333) can0 0CFE00F3#00361427FD261427
(1741076326.642406) can0 0CFE00F3#00361B2709271A27
(1741076327.247340) can0 0CFE00F3#0036202709271127
(1741076326.631868) can0 0CFE00F3#00361B27FD260F27
(1741076326.610657) can0 0CFE00F3#0036182700271427
(1741076326.601629) can0 18FE0300#1227FF261A270000
(1741076327.809455) can0 0CFE00F3#00361F2703270A27
(1741076326.591338) can0 18FE0300#122700271A270000
(1741076326.588353) can0 0CFE00F3#00361C27F8261127
(1741076326.577356) can0 0CFE00F3#00361F27F7261227
(1741076326.567365) can0 0CFE00F3#0036202703271727
(1741076326.729694) can0 0CFE00F3#0036122705270B27
(1741076326.556355) can0 0CFE00F3#00361E2703271627
(1741076327.650708) can0 18FFA100#28600A0600005220
(1741076326.534360) can0 0CFE00F3#00361827FE261127
(1741076326.523343) can0 0CFE00F3#0036162703271227
(1741076326.521252) can0 18FE0300#102701271A270000
(1741076326.502364) can0 0CFE00F3#00361F27F9261A27
(1741076326.501235) can0 18FE0300#0F27012719270000
(1741076326.480682) can0 0CFE00F3#00361E27F9260B27
(1741076327.541614) can0 18FF2701#0000017A15023031
(1741076326.469360) can0 0CFE00F3#00362027FB260F27
(1741076326.405376) can0 0CFE00F3#00361F2706271127
(1741076326.380716) can0 18FE0300#1027082717270000
(1741076326.361837) can0 0CFE00F3#0036182709271127
(1741076327.593458) can0 0CFE00F3#00371727FF261327
(1741076326.340674) can0 0CFE00F3#0036182705271027
(1741076326.329358) can0 0CFE00F3#0036142704271327
(1741076326.311316) can0 18FE0300#102708271A270000
(1741076326.307351) can0 0CFE00F3#00361C2712270F27
(1741076326.297496) can0 0CFE00F3#00361F2703270727
(1741076326.275384) can0 0CFE00F3#00361A2705271427
(1741076326.264358) can0 0CFE00F3#0036252701271427
(1741076326.260716) can0 18FE0300#1027092719270000
(1741076326.253431) can0 0CFE00F3#0036202710271427
(1741076326.232856) can0 0CFE00F3#00361F2710270A27
(1741076326.221844) can0 0CFE00F3#0036162700271327
(1741076326.220708) can0 18FE0300#1127082719270000
(1741076326.210653) can0 0CFE00F3#00361E2709271A27
(1741076326.491267) can0 18FE0300#0F27022719270000
(1741076326.178357) can0 0CFE00F3#00361A2709270827
(1741076326.167361) can0 0CFE00F3#0036182710271427
(1741076326.145367) can0 0CFE00F3#0036202706271027
(1741076326.135378) can0 0CFE00F3#0036182706272027
(1741076326.113368) can0 0CFE00F3#0036152707270D27
(1741076327.760667) can0 18FE0300#0E2708271B270000
(1741076326.102374) can0 0CFE00F3#0036172706271427
(1741076326.059366) can0 0CFE00F3#00361C2703270A27
(1741076326.912395) can0 0CFE00F3#00361B2700270B27
(1741076326.783351) can0 0CFE00F3#00361C2709271B27
(1741076326.048386) can0 0CFE00F3#0036182707271727
(1741076326.448348) can0 0CFE00F3#00361727FA261627
(1741076326.037359) can0 0CFE00F3#0036192706271127
(1741076325.994354) can0 0CFE00F3#0036212709270B27
(1741076325.983367) can0 0CFE00F3#0036222707271027
(1741076325.973376) can0 0CFE00F3#0036152704271327
(1741076326.869355) can0 0CFE00F3#0036162709270727
(1741076325.919381) can0 0CFE00F3#0036152702271827
(1741076325.908383) can0 0CFE00F3#00361C2701270A27
(1741076325.886374) can0 0CFE00F3#0036202704270D27
(1741076325.875369) can0 0CFE00F3#00361927FF261B27
(1741076325.866605) can0 0CFE05F3#EBFD7300AB011027
(1741076325.865497) can0 0CFE00F3#00361B2702271127
(1741076326.923346) can0 0CFE00F3#00361F2707271127
(1741076325.820729) can0 18FE0300#1027022717270000
(1741076325.811832) can0 0CFE00F3#0036192707271527
(1741076325.800642) can0 0CFE00F3#0036162704271127
(1741076327.301759) can0 0CFE00F3#00361927FD261927
(1741076323.942458) can0 0CFE00F3#0036262708270D27
(1741076326.966337) can0 0CFE00F3#003619270B270327
(1741076325.854370) can0 0CFE00F3#00361D2703270A27
(1741076325.746380) can0 0CFE00F3#00361527FE260C27
(1741076323.865002) can0 18FF2701#0000007B00023033
(1741076323.801317) can0 18FE0300#112706271A270000
(1741076326.491816) can0 0CFE00F3#00361A27F7261227
(1741076323.845419) can0 0CFE00F3#0036182707271127
(1741076326.826338) can0 0CFE00F3#0036162706271727
(1741076326.124352) can0 0CFE00F3#00361B2703270927
(1741076325.897373) can0 0CFE00F3#00361C2704270C27
(1741076323.726419) can0 0CFE00F3#0036162706271D27
(1741076327.161815) can0 0CFE00F3#00361627FC261927
(1741076325.843365) can0 0CFE00F3#0036162705271327
(1741076323.813441) can0 0CFE00F3#00361D270B270C27
(1741076323.791341) can0 18FE0300#122706271A270000
(1741076323.694416) can0 0CFE00F3#00361C2701271527
(1741076324.525393) can0 0CFE00F3#00361A2703270F27
(1741076325.076388) can0 0CFE00F3#0036162704270427
(1741076323.651904) can0 0CFE00F3#00361E2708271427
(1741076323.640729) can0 0CFE00F3#0036232705271727
(1741076323.570185) can0 18FF0B00#BF027C7877782414
(1741076323.629420) can0 0CFE00F3#003616270B271127
(1741076326.955345) can0 0CFE00F3#0036212702270827
(1741076322.734584) can0 0CFE05F3#1CFE7C00DD011027
(1741076326.685346) can0 0CFE00F3#00361A270C270F27
(1741076323.607412) can0 0CFE00F3#00361D270C270D27
(1741076323.591343) can0 18FE0300#1227042717270000
(1741076324.245420) can0 0CFE00F3#00361B2704271127
(1741076323.586411) can0 0CFE00F3#00361627FD261A27
(1741076323.759428) can0 0CFE00F3#00361C2702270E27
(1741076327.647340) can0 0CFE00F3#0036192705270327
(1741076322.905433) can0 0CFE00F3#00361C27FE261227
(1741076323.553504) can0 0CFE00F3#0036162702271127
(1741076323.275214) can0 0CFE09F3#7703C4096E063116
(1741076324.234722) can0 0CFE00F3#00361C270A270C27
(1741076327.733345) can0 0CFE00F3#00361C2701270E27
(1741076324.501315) can0 18FE0300#1227062718270000
(1741076323.731951) can0 18FE0300#1327062719270000
(1741076324.871864) can0 0CFE00F3#003616270A270F27
(1741076327.539343) can0 0CFE00F3#0036172703270927
(1741076323.424420) can0 0CFE00F3#0036122706271927
(1741076327.791260) can0 18FE0300#0F2709271A270000
(1741076327.801818) can0 18FE0300#0E2709271A270000
(1741076323.381923) can0 0CFE00F3#0036162706271027
(1741076324.246532) can0 0CFE05F3#30FE9B00D5011027
(1741076322.938427) can0 0CFE00F3#00361627F8261527
(1741076323.370735) can0 0CFE00F3#0036212705271227
(1741076323.661983) can0 0CFE00F3#00361F27FD261727
(1741076323.532527) can0 0CFE00F3#0036142704271727
(1741076324.011374) can0 18FE0300#0F2704271A270000
(1741076323.316430) can0 0CFE00F3#00360F27FC260D27
(1741076325.227950) can0 0CFE00F3#00361A2702271027
(1741076323.273547) can0 0CFE00F3#0036132703270B27
(1741076325.443176) can0 18FF2701#0000007A09003031
(1741076323.262424) can0 0CFE00F3#0036142704270F27
(1741076326.891805) can0 0CFE00F3#00361F2706270F27
(1741076326.394363) can0 0CFE00F3#00361327FD260D27
(1741076323.229426) can0 0CFE00F3#0036202704270F27
(1741076324.806380) can0 0CFE00F3#0036192709271627
(1741076323.165658) can0 0CFE00F3#00361A27FA261227
(1741076323.132563) can0 0CFE00F3#00361C27FE260C27
(1741076323.618417) can0 0CFE00F3#00361127FD260B27
(1741076322.765487) can0 0CFE00F3#00361527F7260727
(1741076323.384723) can0 0CFE02F3#4902050248000000
(1741076323.564422) can0 0CFE00F3#0036182706270927
(1741076325.422380) can0 0CFE00F3#0036192708271027
(1741076322.764330) can0 18FF1D20#08F3FFFFFFFFFFFF
(1741076326.511272) can0 18FE0300#102700271A270000
(1741076325.003503) can0 0CFE09F3#7203C4096F063016
(1741076325.044390) can0 0CFE00F3#00361B2703271127
(1741076323.499423) can0 0CFE00F3#0036132704270D27
(1741076323.391916) can0 0CFE00F3#0036192704271727
(1741076323.337428) can0 0CFE00F3#00361A2702271127
(1741076324.374406) can0 0CFE00F3#00361F2700271427
(1741076326.545344) can0 0CFE00F3#003618270D271427
(1741076325.940680) can0 0CFE00F3#0036222703271327
(1741076325.332837) can0 18FE0300#0E27062717270000
(1741076323.820779) can0 18FE0300#112706271B270000
(1741076323.024429) can0 0CFE00F3#0036192709270D27
(1741076322.689449) can0 0CFE00F3#00361327FD260827
(1741076324.990703) can0 0CFE00F3#00361327FB261127
(1741076327.657492) can0 0CFE00F3#00371E270D271527
(1741076322.895438) can0 0CFE00F3#0036182704271127
(1741076322.787439) can0 0CFE00F3#00361227FC261127
(1741076323.013431) can0 0CFE00F3#00361B2709271127
(1741076327.150634) can0 0CFE00F3#00361827FB260427
(1741076324.385405) can0 0CFE00F3#00361F2706271327
(1741076325.649502) can0 0CFE00F3#00361627FD261427
(1741076322.668434) can0 0CFE00F3#0036192708271727
(1741076326.351789) can0 0CFE00F3#0036152702270F27
(1741076323.715413) can0 0CFE00F3#00361C270A271227
(1741076325.713370) can0 0CFE00F3#00361727FD261527
(1741076327.776321) can0 0CFE00F3#00361F270D271127
(1741076324.461887) can0 0CFE00F3#00361C2704271427
(1741076327.063330) can0 0CFE00F3#003621270C271427
(1741076322.657594) can0 0CFE00F3#00361727EF261527
(1741076323.154684) can0 0CFE00F3#0036172709271127
(1741076324.417405) can0 0CFE00F3#003615270B271827
(1741076325.087383) can0 0CFE00F3#0036162703270B27
(1741076323.456421) can0 0CFE00F3#00361F2709270F27
(1741076325.821866) can0 0CFE00F3#00362027FF261027
(1741076323.781877) can0 18FE0300#1327042719270000
(1741076322.646525) can0 0CFE00F3#0036182704270927
(1741076323.383590) can0 0CFE09F3#7703C4096E063016
(1741076323.680773) can0 18FE0300#122705271A270000
(1741076324.284333) can0 18FF2701#0000007A01003031
(1741076322.625584) can0 0CFE00F3#00361A2706270727
(1741076322.916425) can0 0CFE00F3#00362127F8261727
(1741076322.862425) can0 0CFE00F3#00361B2706271327
(1741076325.616376) can0 0CFE00F3#00361A2702271527
(1741076324.091340) can0 18FE0300#0D2704271A270000
(1741076326.568486) can0 0CFE05F3#88FE93003F021027
(1741076323.100703) can0 0CFE00F3#00361C27FD260A27
(1741076327.744318) can0 0CFE00F3#00361F270A271427
(1741076326.696355) can0 0CFE00F3#0036182706270C27
(1741076327.117346) can0 0CFE00F3#0036102706270427
(1741076322.711915) can0 0CFE00F3#0036222706270F27
(1741076323.544557) can0 0CFE05F3#0DFE7800DC011027
(1741076325.346381) can0 0CFE00F3#0036162702271827
(1741076323.035429) can0 0CFE00F3#0036172706271327
(1741076323.737418) can0 0CFE00F3#00361D2702271427
(1741076323.975423) can0 0CFE00F3#00361C2704270E27
(1741076323.811341) can0 18FE0300#122706271B270000
(1741076322.776476) can0 0CFE00F3#0036102708271427
(1741076326.793341) can0 0CFE00F3#00361B270A271127
(1741076325.757392) can0 0CFE00F3#00361A2706271027
(1741076323.823416) can0 0CFE00F3#00361C2705270B27
(1741076322.743448) can0 0CFE00F3#0036122707270A27
(1741076325.595387) can0 0CFE00F3#00361D27FC260A27
(1741076322.610236) can0 18FF0B00#BE027D7877782454
(1741076327.031876) can0 0CFE00F3#00361E2709271027
(1741076323.683424) can0 0CFE00F3#0036162708271627
(1741076325.724377) can0 0CFE00F3#00361427F6260F27
(1741076323.510729) can0 0CFE00F3#00361C2702271227
(1741076323.597430) can0 0CFE00F3#0036162703270E27
(1741076322.970747) can0 0CFE00F3#0036172709271727
(1741076325.206388) can0 0CFE00F3#00361C2700270E27
(1741076322.791429) can0 18FE0300#0F27012716270000
(1741076324.363401) can0 0CFE00F3#0036222702271127
(1741076322.981920) can0 0CFE00F3#00361B2706271927
(1741076323.802426) can0 0CFE00F3#0036202704271327
(1741076323.871455) can0 18FE0300#112705271B270000
(1741076323.294423) can0 0CFE00F3#00361C2703270D27
(1741076323.208424) can0 0CFE00F3#00361727FE261327
(1741076327.409340) can0 0CFE00F3#0036162703271427
(1741076324.893409) can0 0CFE00F3#00361A2702271227
(1741076323.543442) can0 0CFE00F3#00361F2700270F27
(1741076322.700735) can0 0CFE00F3#00361F2704271127
(1741076326.156357) can0 0CFE00F3#00361A2702270D27
(1741076323.143431) can0 0CFE00F3#0036252706271227
(1741076326.437357) can0 0CFE00F3#00361C27FE260A27
(1741076323.769422) can0 0CFE00F3#00361A27FF261E27
(1741076325.119385) can0 0CFE00F3#00361B2709271727
(1741076322.808432) can0 0CFE00F3#0036182710271127
(1741076325.638375) can0 0CFE00F3#00361727FD261027
(1741076324.650784) can0 18FF1700#00000000C7006411
(1741076323.931942) can0 0CFE00F3#0036172700271627
(1741076323.899420) can0 0CFE00F3#00361927F9260B27
(1741076325.605369) can0 0CFE00F3#00361A270D270A27
(1741076322.927960) can0 0CFE00F3#0036182700270D27
(1741076327.071246) can0 18FE0300#0E2707271A270000
(1741076323.860790) can0 18FF0120#F0FFFF7FFFFFFFFF
(1741076323.067427) can0 0CFE00F3#0036192700270E27
(1741076322.819446) can0 0CFE00F3#00361D27FE261127
(1741076324.979394) can0 0CFE00F3#00361727FE260327
(1741076322.941405) can0 18FE0300#112701271A270000
(1741076325.508379) can0 0CFE00F3#00361A2704271627
(1741076322.949448) can0 0CFE00F3#0036172701270C27
(1741076323.888413) can0 0CFE00F3#0036162701271227
(1741076322.614445) can0 0CFE00F3#00361E2708271127
(1741076322.951677) can0 0CFE10F3#0300363E00000000
(1741076325.487389) can0 0CFE00F3#0036222710271127
(1741076326.189377) can0 0CFE00F3#00361C2706271627
(1741076325.627938) can0 0CFE00F3#00361927FF260F27
(1741076323.057563) can0 0CFE00F3#0036182708270F27
(1741076322.671438) can0 18FE0300#0F27002718270000
(1741076322.959435) can0 0CFE00F3#00361927FB261227
(1741076323.283421) can0 0CFE00F3#0036132706270D27
(1741076326.901760) can0 0CFE00F3#00361A270D271127
(1741076325.109406) can0 0CFE00F3#003613270A270827
(1741076327.193346) can0 0CFE00F3#00361827FF261727
(1741076323.219441) can0 0CFE00F3#0036192706271327
(1741076323.003449) can0 0CFE00F3#0036192710271027
(1741076327.463333) can0 0CFE00F3#00361E2706270D27
(1741076324.957404) can0 0CFE00F3#00361627FB260F27
(1741076327.625342) can0 0CFE00F3#0036132708271027
(1741076324.860739) can0 0CFE00F3#00361A2701270F27
(1741076325.261842) can0 18FE0300#1027062716270000
(1741076325.703455) can0 0CFE00F3#0036162707271527
(1741076323.910730) can0 0CFE00F3#003621270F271227
(1741076324.309405) can0 0CFE00F3#0036122703270A27
(1741076324.882396) can0 0CFE00F3#0036192700270D27
(1741076325.325397) can0 0CFE00F3#00361D2701271127
(1741076325.001285) can0 18FE0300#0D27022717270000
(1741076323.121918) can0 0CFE00F3#003619270B270827
(1741076326.243357) can0 0CFE00F3#0036162709271127
(1741076323.011365) can0 18FE0300#1227032719270000
(1741076325.778364) can0 0CFE00F3#0036172700270D27
(1741076322.733466) can0 0CFE00F3#00361D27FE260F27
(1741076324.558397) can0 0CFE00F3#00361C27F9260B27
(1741076325.541359) can0 18FE0300#0F2705271A270000
(1741076323.078424) can0 0CFE00F3#0036172708271127
(1741076323.672477) can0 0CFE00F3#00361F2703271827
(1741076324.936391) can0 0CFE00F3#0036222706270D27
(1741076322.841898) can0 0CFE00F3#003619270C270E27
(1741076325.454373) can0 0CFE00F3#003619270D270D27
(1741076323.089422) can0 0CFE00F3#0036142706271327
(1741076323.197423) can0 0CFE00F3#00361A2701271427
(1741076325.130748) can0 0CFE00F3#00361B2703271427
(1741076323.985413) can0 0CFE00F3#00361A2700270D27
(1741076324.007419) can0 0CFE00F3#00361C2705270827
(1741076325.863004) can0 18FF2701#0000007A0B003031
(1741076324.018423) can0 0CFE00F3#00361827FA260F27
(1741076323.489552) can0 0CFE00F3#003618270B271327
(1741076324.029433) can0 0CFE00F3#00361527FC260D27
(1741076325.963898) can0 18FF2701#0000007A0C003031
(1741076325.238380) can0 0CFE00F3#003610270B271427
(1741076324.039407) can0 0CFE00F3#003619270B271227
(1741076322.884424) can0 0CFE00F3#0036222703270F27
(1741076324.579398) can0 0CFE00F3#00361B2706271127
(1741076325.173384) can0 0CFE00F3#0036172703271227
(1741076324.061907) can0 0CFE00F3#00361927FF260727
(1741076324.072454) can0 0CFE00F3#00361C270D270A27
(1741076324.083414) can0 0CFE00F3#0036232702270D27
(1741076324.104415) can0 0CFE00F3#0036192700270B27
(1741076327.595119) can0 0CFE09F3#6F03C4096E063116
(1741076326.623506) can0 0CFE09F3#7203C4096D063116
(1741076324.115399) can0 0CFE00F3#003619270F270A27
(1741076327.022897) can0 18FE0300#0C27072719270000
(1741076323.320783) can0 18FE0300#0F27032716270000
(1741076324.093416) can0 0CFE00F3#00361A27FE261727
(1741076326.599371) can0 0CFE00F3#00361A27FC260C27
(1741076323.111906) can0 0CFE00F3#00361C2708270A27
(1741076325.411856) can0 0CFE00F3#00361F2709270727
(1741076324.147397) can0 0CFE00F3#003617270B271427
(1741076324.158401) can0 0CFE00F3#0036162702271427
(1741076325.789376) can0 0CFE00F3#0036182707271527
(1741076325.271852) can0 0CFE00F3#00361C2703270727
(1741076324.169400) can0 0CFE00F3#003617270B271027
(1741076324.191892) can0 0CFE00F3#00361727FC260C27
(1741076324.180739) can0 0CFE00F3#0036122709270C27
(1741076324.288412) can0 0CFE00F3#00361627FE261627
(1741076325.184382) can0 0CFE00F3#0036142704271427
(1741076324.201841) can0 0CFE00F3#003619270C271127
(1741076325.400658) can0 0CFE00F3#00361B2703271727
(1741076322.873424) can0 0CFE00F3#00361E2703271427
(1741076324.828510) can0 0CFE00F3#003618270B271C27
(1741076326.091826) can0 0CFE00F3#0036152708271227
(1741076324.212451) can0 0CFE00F3#003612270A271427
(1741076324.223410) can0 0CFE00F3#00361D2706271527
(1741076327.582356) can0 0CFE00F3#0036162703271127
(1741076325.659690) can0 0CFE00F3#0036192702270E27
(1741076325.584370) can0 0CFE00F3#0036142703271127
(1741076324.255409) can0 0CFE00F3#0036202701270D27
(1741076324.266404) can0 0CFE00F3#00361F2702270F27
(1741076323.402440) can0 0CFE00F3#00361B2701271127
(1741076324.774385) can0 0CFE00F3#003619270A270727
(1741076326.382232) can0 18FF2701#0000007A0E003031
(1741076323.467423) can0 0CFE00F3#0036222707271427
(1741076325.314374) can0 0CFE00F3#00361B270A270A27
(1741076324.320741) can0 0CFE00F3#00361E27FA260927
(1741076324.428510) can0 0CFE00F3#0036172706270F27
(1741076326.988345) can0 0CFE00F3#00361A2702270F27
(1741076322.821155) can0 18FE0300#1027032716270000
(1741076324.471878) can0 0CFE00F3#0036122707271127
(1741076324.344269) can0 18FF2701#0000007A01023031
(1741076324.391340) can0 18FE0300#102703271A270000
(1741076324.396397) can0 0CFE00F3#0036222706271327
(1741076324.401316) can0 18FE0300#112703271B270000
(1741076326.718345) can0 0CFE00F3#00361E2706270927
(1741076323.413433) can0 0CFE00F3#0036162705270D27
(1741076324.407408) can0 0CFE00F3#0036192703271627
(1741076323.575413) can0 0CFE00F3#0036152707271A27
(1741076323.305871) can0 0CFE00F3#00361527FE261427
(1741076324.420818) can0 18FE0300#122704271A270000
(1741076326.415353) can0 0CFE00F3#00361F2706271627
(1741076324.450713) can0 0CFE00F3#0036192702271227
(1741076324.482398) can0 0CFE00F3#0036182709271727
(1741076324.504669) can0 0CFE00F3#00361327FE260B27
(1741076323.834420) can0 0CFE00F3#0036162707271227
(1741076323.867431) can0 0CFE00F3#00362027F9261627
(1741076324.515409) can0 0CFE00F3#00361D2706271127
(1741076327.821632) can0 18FE0300#0E2708271A270000
(1741076324.536404) can0 0CFE00F3#0036232701271927
(1741076327.085353) can0 0CFE00F3#00361F2706271B27
(1741076325.735371) can0 0CFE00F3#00361E27FC261227
(1741076325.098383) can0 0CFE00F3#0036172703272527
(1741076326.881776) can0 18FE0300#0E27092716270000
(1741076325.163392) can0 0CFE00F3#00361F2709271327
(1741076324.547425) can0 0CFE00F3#00361C2708271127
(1741076327.668324) can0 0CFE00F3#0036122708271427
(1741076327.652429) can0 18FF0800#4000007427000F7A
(1741076324.687386) can0 0CFE00F3#00361B2707270A27
(1741076324.439403) can0 0CFE00F3#0036162700270D27
(1741076324.569530) can0 0CFE00F3#00361B27FC261327
(1741076326.232306) can0 18FE0300#1127072718270000
(1741076326.199358) can0 0CFE00F3#0036182701270D27
(1741076324.590716) can0 0CFE00F3#0036162703270D27
(1741076324.601884) can0 0CFE00F3#0036162700271927
(1741076324.612450) can0 0CFE00F3#00361B2700270E27
(1741076325.471300) can0 18FE0300#0E27092718270000
(1741076325.670680) can0 0CFE00F3#0036192702271727
(1741076326.891255) can0 18FE0300#0F27082717270000
(1741076324.644514) can0 0CFE00F3#0036222709271C27
(1741076324.633412) can0 0CFE00F3#0036182700270727
(1741076324.654797) can0 18FF1600#0000000000000000
(1741076324.698391) can0 0CFE00F3#0036212705270D27
(1741076324.720720) can0 0CFE00F3#00361A2706271127
(1741076324.623414) can0 0CFE00F3#00361E2706271727
(1741076324.731905) can0 0CFE00F3#0036142706270E27
(1741076324.493395) can0 0CFE00F3#00361C270D271427
(1741076324.752429) can0 0CFE00F3#0036192701271427
(1741076322.679444) can0 0CFE00F3#0036122703270E27
(1741076324.709394) can0 0CFE00F3#0036172710270627
(1741076324.763389) can0 0CFE00F3#00361A2707270A27
(1741076324.785514) can0 0CFE00F3#00361E2702271727
(1741076324.677409) can0 0CFE00F3#003617270E271227
(1741076324.795382) can0 0CFE00F3#003618270A271927
(1741076323.348436) can0 0CFE00F3#0036222702271627
(1741076324.331969) can0 0CFE00F3#00362327FD260D27
(1741076325.541849) can0 0CFE00F3#00361C270A270927
(1741076324.842252) can0 18FE0300#1127062717270000
(1741076325.519391) can0 0CFE00F3#00361F27FF260D27
(1741076325.929365) can0 0CFE00F3#0036192706270E27
(1741076325.681867) can0 0CFE00F3#00361627FE261227
(1741076326.081845) can0 0CFE00F3#0036172709270527
(1741076324.849393) can0 0CFE00F3#00361427FF261427
(1741076324.903394) can0 0CFE00F3#003617270C271827
(1741076324.914391) can0 0CFE00F3#00362227FD261327
(1741076324.137539) can0 0CFE00F3#00361B270A271027
(1741076324.925395) can0 0CFE00F3#0036162700270A27
(1741076324.947395) can0 0CFE00F3#0036192702270D27
(1741076324.968404) can0 0CFE00F3#003618270627FF26
(1741076324.981106) can0 18FE0300#0E27032718270000
(1741076326.372414) can0 0CFE00F3#00360F2708271427
(1741076323.780762) can0 0CFE00F3#0036202714270927
(1741076325.001835) can0 0CFE00F3#00361F2701271627
(1741076325.011874) can0 0CFE00F3#00361C27FC261127
(1741076326.815340) can0 0CFE00F3#0036182709270C27
(1741076325.065389) can0 0CFE00F3#0036152708271427
(1741076325.022429) can0 0CFE00F3#00361927FE260D27
(1741076325.152428) can0 0CFE00F3#0036122702271127
(1741076325.033392) can0 0CFE00F3#0036192700271027
(1741076325.433513) can0 0CFE00F3#00361F2712271127
(1741076325.055394) can0 0CFE00F3#0036162706270D27
(1741076325.056515) can0 0CFE05F3#20FE7100DF011027
(1741076325.080746) can0 18FE0300#0E27032717270000
(1741076326.513483) can0 0CFE00F3#00361A2704271327
(1741076324.853287) can0 18FE0300#1227062717270000
(1741076327.603323) can0 0CFE00F3#003614270A270C27
(1741076325.141859) can0 0CFE00F3#00361B2708270A27
(1741076325.379392) can0 0CFE00F3#003618270B271427
(1741076322.797451) can0 0CFE00F3#00361A2704271127
(1741076325.195387) can0 0CFE00F3#0036162700271427
(1741076325.217517) can0 0CFE00F3#0036142707271127
(1741076327.355327) can0 0CFE00F3#00361627FD261627
(1741076324.354058) can0 0CFE00F3#0036172702271327
(1741076325.443719) can0 0CFE00F3#003616270D271227
(1741076327.225354) can0 0CFE00F3#0036222700271427
(1741076325.249386) can0 0CFE00F3#0036182708270D27
(1741076325.465382) can0 0CFE00F3#0036182709270927
(1741076325.562384) can0 0CFE00F3#0036202701270F27
(1741076325.281875) can0 0CFE00F3#0036192703270727
(1741076322.754428) can0 0CFE00F3#0036162705271627
(1741076325.460732) can0 18FE0300#0F27092718270000
(1741076327.366333) can0 0CFE00F3#0036182703270B27
(1741076323.359422) can0 0CFE00F3#0036122709271227
(1741076325.291311) can0 18FE0300#0E27052716270000
(1741076325.303857) can0 0CFE00F3#0036132711270D27
(1741076325.951797) can0 0CFE00F3#00361C2715271227
(1741076323.856415) can0 0CFE00F3#0036222708271427
(1741076325.320748) can0 18FE0300#0E27072717270000
(1741076325.530727) can0 0CFE00F3#00361B27FA261027
(1741076325.183436) can0 18FF2701#0000007A07023031
(1741076325.335384) can0 0CFE00F3#0036162700271127
(1741076326.621835) can0 0CFE00F3#0036182700270A27
(1741076325.368383) can0 0CFE00F3#0036152706270827
(1741076325.292436) can0 0CFE00F3#00361E2706271327
(1741076325.389384) can0 0CFE00F3#0036112705270F27
(1741076325.435179) can0 0CFE09F3#7303C4096F063116
(1741076326.131915) can0 18FE0300#0E27062718270000
(1741076325.551820) can0 0CFE00F3#00361B2706270C27
(1741076326.571325) can0 18FE0300#122702271A270000
(1741076325.611296) can0 18FE0300#0D2705271A270000
(1741076325.692443) can0 0CFE00F3#00361C27FF260B27
(1741076327.517347) can0 0CFE00F3#0036122708271227
(1741076325.752901) can0 18FE0300#1027002717270000
(1741076325.767368) can0 0CFE00F3#0036172700270B27
