(1741076404.302835) can0 0CFE05F3#30FE9600CA011027
(1741076404.301723) can0 0CFE00F3#0038122709270D27
(1741076404.279717) can0 0CFE00F3#0038112705270927
(1741076404.269127) can0 0CFE00F3#003816270B271427
(1741076404.257728) can0 0CFE00F3#00381A2704271627
(1741076404.251237) can0 18FF2701#0000007A00033033
(1741076404.247855) can0 0CFE00F3#00381D2706270727
(1741076404.214900) can0 0CFE00F3#00381D2708270327
(1741076404.203720) can0 0CFE00F3#00381E2707270B27
(1741076404.193730) can0 0CFE00F3#00381C270C270427
(1741076404.182722) can0 0CFE00F3#003816270D270427
(1741076404.171716) can0 0CFE00F3#00381A270D270227
(1741076404.160718) can0 0CFE00F3#00381C2701270D27
(1741076404.139738) can0 0CFE00F3#0038122714271027
(1741076404.096049) can0 0CFE00F3#00381F2710270D27
(1741076404.086029) can0 0CFE00F3#0038152704270C27
(1741076404.074922) can0 0CFE00F3#0038212709270F27
(1741076404.052723) can0 0CFE00F3#0038182703271227
(1741076404.041722) can0 0CFE00F3#00381B2702271227
(1741076403.977735) can0 0CFE00F3#0038182703271527
(1741076403.956068) can0 0CFE00F3#00381C270A270427
(1741076403.923741) can0 0CFE00F3#0038232710270D27
(1741076403.912723) can0 0CFE00F3#0038172705270927
(1741076403.901728) can0 0CFE00F3#0038142707270E27
(1741076403.858724) can0 0CFE00F3#003819270F271827
(1741076403.817188) can0 0CFE05F3#31FE9300C3011027
(1741076403.816067) can0 0CFE00F3#0038142707270C27
(1741076403.804908) can0 0CFE00F3#003818270A270F27
(1741076403.793727) can0 0CFE00F3#00381D2703270D27
(1741076403.771720) can0 0CFE00F3#00381A270D270927
(1741076403.765576) can0 18FE0300#0927092719270000
(1741076403.727230) can0 18FE0300#0B27092719270000
(1741076403.717726) can0 0CFE00F3#00381E2703270C27
(1741076403.712141) can0 18FF2701#0000007A00013033
(1741076403.987721) can0 0CFE00F3#00381F2710270B27
(1741076403.674946) can0 0CFE00F3#003820270B270627
(1741076403.642729) can0 0CFE00F3#0038202709270D27
(1741076403.631726) can0 0CFE00F3#00381C270B270827
(1741076403.610029) can0 0CFE00F3#0038222709271227
(1741076404.031850) can0 0CFE00F3#003819270D271327
(1741076403.599856) can0 0CFE00F3#00381C2715270B27
(1741076403.588728) can0 0CFE00F3#0038192703270D27
(1741076403.546096) can0 0CFE00F3#003812270D270827
(1741076403.501737) can0 0CFE00F3#0038202704270927
(1741076403.480731) can0 0CFE00F3#003816270A270A27
(1741076403.469934) can0 0CFE00F3#0038162700270C27
(1741076403.447730) can0 0CFE00F3#00381C270B270D27
(1741076403.437742) can0 0CFE00F3#0038192702270C27
(1741076403.350722) can0 0CFE00F3#0038162709270B27
(1741076404.063724) can0 0CFE00F3#003818270D270E27
(1741076403.339728) can0 0CFE00F3#0038162706271127
(1741076403.330061) can0 0CFE00F3#0038152706270F27
(1741076403.318738) can0 0CFE00F3#0038182705271027
(1741076403.286055) can0 0CFE00F3#00381C270A270527
(1741076403.474967) can0 18FE0300#0A27082718270000
(1741076403.264928) can0 0CFE00F3#0038202703270827
(1741076403.253738) can0 0CFE00F3#00381C270B270E27
(1741076403.245595) can0 18FE0300#0D270A2715270000
(1741076403.231913) can0 0CFE00F3#0038182703271027
(1741076403.404928) can0 0CFE00F3#0038182709270D27
(1741076403.227910) can0 18FF1600#0000000000000000
(1741076403.221755) can0 0CFE00F3#0038172704271127
(1741076403.177746) can0 0CFE00F3#003813270D270A27
(1741076403.156739) can0 0CFE00F3#003819271127FE26
(1741076403.426735) can0 0CFE00F3#00381E2707270D27
(1741076403.146091) can0 0CFE00F3#00380F2716271127
(1741076403.123737) can0 0CFE00F3#003812270A270427
(1741076403.113753) can0 0CFE00F3#0038162703270627
(1741076403.372731) can0 0CFE00F3#003817270B270A27
(1741076403.070866) can0 18FF2701#0000007906023033
(1741076403.069743) can0 0CFE00F3#0038192704270D27
(1741076403.045543) can0 18FE0300#0B27092714270000
(1741076403.037753) can0 0CFE00F3#00380F27FE260B27
(1741076403.007217) can0 0CFE05F3#2DFE9700C2011027
(1741076403.006097) can0 0CFE00F3#0038142710270A27
(1741076402.994961) can0 0CFE00F3#003818270D270F27
(1741076400.133263) can0 0CFE00F3#00381D2703270627
(1741076401.225573) can0 0CFE09F3#6D03C4096F063218
(1741076403.966719) can0 0CFE00F3#0038122708270C27
(1741076402.659743) can0 0CFE00F3#0038142710270B27
(1741076403.707792) can0 0CFE00F3#0038222707270C27
(1741076401.233775) can0 0CFE00F3#00381B270A270D27
(1741076401.175038) can0 18FE0300#09270A2718270000
(1741076400.013813) can0 0CFE00F3#003816270E270727
(1741076401.147791) can0 0CFE00F3#00381F2706270B27
(1741076401.201788) can0 0CFE00F3#0038172709270827
(1741076401.256165) can0 0CFE00F3#00381C270B270727
(1741076402.227839) can0 0CFE00F3#00381A2710271127
(1741076403.080743) can0 0CFE00F3#0038202709271327
(1741076403.879732) can0 0CFE00F3#0038182708270C27
(1741076401.061794) can0 0CFE00F3#0038192706271227
(1741076403.826087) can0 0CFE00F3#0038152706270D27
(1741076402.864935) can0 0CFE00F3#0038122708270D27
(1741076401.045607) can0 18FE0300#0D270C2717270000
(1741076401.223913) can0 0CFE00F3#00381E270D270827
(1741076401.028784) can0 0CFE00F3#003813270C270927
(1741076400.996792) can0 0CFE00F3#00381F270A270D27
(1741076400.963805) can0 0CFE00F3#0038162704270727
(1741076400.942791) can0 0CFE00F3#003822270D270B27
(1741076402.765560) can0 18FE0300#0B270C2716270000
(1741076403.048740) can0 0CFE00F3#0038192702271627
(1741076401.945584) can0 18FE0300#0D27032717270000
(1741076400.866789) can0 0CFE00F3#0038192710270D27
(1741076401.514991) can0 0CFE00F3#0038192708270F27
(1741076402.525619) can0 18FE0300#0B270D2714270000
(1741076400.801798) can0 0CFE00F3#00381F2706271127
(1741076401.287777) can0 0CFE00F3#00381E270F270927
(1741076400.891955) can0 18FF2701#0000027923013031
(1741076401.386110) can0 0CFE00F3#003820270C271327
(1741076402.562762) can0 0CFE00F3#0038192714271027
(1741076401.008476) can0 0CFE00F3#0038162711271427
(1741076404.149718) can0 0CFE00F3#0038162709271027
(1741076400.769798) can0 0CFE00F3#0038192707270427
(1741076401.244999) can0 0CFE00F3#003819271027FE26
(1741076404.226042) can0 0CFE00F3#0038172709270927
(1741076400.737809) can0 0CFE00F3#00381A2706270B27
(1741076404.207148) can0 18FE0300#09270B2717270000
(1741076400.002811) can0 0CFE00F3#00381B270F270527
(1741076400.705006) can0 0CFE00F3#0038192709270827
(1741076401.363782) can0 0CFE00F3#00381B2715270727
(1741076403.998723) can0 0CFE00F3#00381A2703270E27
(1741076400.688908) can0 18FE0300#0D27062718270000
(1741076403.017212) can0 18FE0300#0A270B2715270000
(1741076403.134924) can0 0CFE00F3#003816270A270B27
(1741076400.521808) can0 0CFE00F3#0038162703270E27
(1741076401.687769) can0 0CFE00F3#00381A2703270A27
(1741076401.633776) can0 0CFE00F3#0038232709270727
(1741076401.698767) can0 0CFE00F3#003819270A270A27
(1741076401.873570) can0 0CFE09F3#6C03C4096D063318
(1741076400.596798) can0 0CFE00F3#0038192705270B27
(1741076403.577725) can0 0CFE00F3#003819270B270A27
(1741076400.531801) can0 0CFE00F3#00380F2705270C27
(1741076400.953793) can0 0CFE00F3#003814270F270D27
(1741076400.488806) can0 0CFE00F3#0038142700270A27
(1741076400.555504) can0 18FE0300#0D27052715270000
(1741076400.326798) can0 0CFE00F3#00380E2716270D27
(1741076401.606799) can0 18FE0300#0D2707271A270000
(1741076403.209885) can0 18FF2701#0000007902023033
(1741076401.010147) can0 0CFE09F3#6B03C4096F063318
(1741076400.912185) can0 18FF2701#0000037923013031
(1741076403.266635) can0 18FE0300#0D270A2716270000
(1741076401.795018) can0 18FE0300#0B27072716270000
(1741076400.510799) can0 0CFE00F3#00381B27F9260C27
(1741076403.016095) can0 0CFE00F3#0038152700270F27
(1741076402.066132) can0 0CFE00F3#0038162701271127
(1741076400.506774) can0 18FE0300#0E27072717270000
(1741076403.188741) can0 0CFE00F3#003818270F270727
(1741076402.516131) can0 18FE0300#0A270D2715270000
(1741076400.758800) can0 0CFE00F3#0038222704270827
(1741076400.672790) can0 0CFE00F3#00381B270B270D27
(1741076403.361736) can0 0CFE00F3#00381A270F270327
(1741076402.357784) can0 0CFE00F3#0038102706270627
(1741076400.877789) can0 0CFE00F3#00381C2713271227
(1741076400.477792) can0 0CFE00F3#0038142709271327
(1741076400.486159) can0 18FE0300#0F27082717270000
(1741076400.986130) can0 0CFE00F3#0038142713270627
(1741076401.871901) can0 0CFE00F3#00381927FD261027
(1741076400.089813) can0 0CFE00F3#0038162707270F27
(1741076403.491748) can0 0CFE00F3#0038162706271427
(1741076400.684931) can0 0CFE05F3#A6FD1601EF001027
(1741076401.158793) can0 0CFE00F3#00381B2707270527
(1741076400.629816) can0 0CFE00F3#00381E2708270127
(1741076402.324967) can0 0CFE00F3#0038172708270F27
(1741076401.586119) can0 18FE0300#0C2709271B270000
(1741076400.456803) can0 0CFE00F3#0038142706271427
(1741076400.261838) can0 0CFE00F3#00381D2709270927
(1741076401.784946) can0 0CFE00F3#00381227F9260727
(1741076403.102744) can0 0CFE00F3#003814270A271327
(1741076400.402809) can0 0CFE00F3#0038192700271127
(1741076400.099807) can0 0CFE00F3#0038102710270427
(1741076400.856205) can0 0CFE00F3#0038162703270927
(1741076400.791915) can0 0CFE00F3#0038222701270A27
(1741076400.095626) can0 18FE0300#0C270E2717270000
(1741076400.835037) can0 0CFE00F3#00381C270A271027
(1741076401.436619) can0 18FE0300#0B270C271A270000
(1741076401.807275) can0 0CFE00F3#0038142703270A27
(1741076402.378766) can0 0CFE00F3#0038102710270B27
(1741076400.413815) can0 0CFE00F3#00381B2707270B27
(1741076400.218802) can0 0CFE00F3#00381C2709270C27
(1741076400.067801) can0 0CFE00F3#003818270F271327
(1741076401.979774) can0 0CFE00F3#003819270D270F27
(1741076400.661804) can0 0CFE00F3#00381A2702271027
(1741076403.653741) can0 0CFE00F3#0038102709270A27
(1741076402.576041) can0 18FE0300#0C270E2716270000
(1741076402.022754) can0 0CFE00F3#0038122709270B27
(1741076402.125585) can0 18FE0300#0D27072715270000
(1741076399.970815) can0 0CFE00F3#00381B2711270B27
(1741076401.179783) can0 0CFE00F3#00381C270D270827
(1741076402.187190) can0 18FE0300#0E27092717270000
(1741076403.086078) can0 18FE0300#0D27092716270000
(1741076400.025030) can0 0CFE00F3#00381A2710270227
(1741076403.523733) can0 0CFE00F3#00381A2706270F27
(1741076401.752776) can0 0CFE00F3#0038182708270E27
(1741076400.110802) can0 0CFE00F3#003818270B270727
(1741076400.920796) can0 0CFE00F3#00381F270D271427
(1741076401.396166) can0 0CFE00F3#00381E2709270627
(1741076401.601793) can0 0CFE00F3#00381327FD260D27
(1741076401.352776) can0 0CFE00F3#00381A2709271427
(1741076399.981827) can0 0CFE00F3#00381A2710270327
(1741076403.754949) can0 18FE0300#0A27092719270000
(1741076400.036197) can0 0CFE00F3#0038172712271127
(1741076401.892771) can0 0CFE00F3#0038182701271227
(1741076400.369798) can0 0CFE00F3#00381E2709270E27
(1741076400.283817) can0 0CFE00F3#00381B270A270E27
(1741076403.869731) can0 0CFE00F3#0038192711270A27
(1741076401.169805) can0 0CFE00F3#0038192708270427
(1741076400.747796) can0 0CFE00F3#0038142702271227
(1741076400.075091) can0 18FE0300#0C270F2718270000
(1741076404.117746) can0 0CFE00F3#003819270D270827
(1741076402.011756) can0 0CFE00F3#0038132707271427
(1741076402.076766) can0 0CFE00F3#0038142709270427
(1741076403.242736) can0 0CFE00F3#0038162709270C27
(1741076400.586138) can0 0CFE00F3#00381927FD261427
(1741076400.153814) can0 0CFE00F3#00381F270D270527
(1741076400.046190) can0 0CFE00F3#00381E270F271127
(1741076401.190779) can0 0CFE00F3#00381C270D270B27
(1741076401.017789) can0 0CFE00F3#0038192707270D27
(1741076400.337811) can0 0CFE00F3#0038192709271427
(1741076401.093797) can0 0CFE00F3#0038162711270627
(1741076399.959834) can0 0CFE00F3#0038182711270A27
(1741076401.849778) can0 0CFE00F3#0038192700270C27
(1741076401.579780) can0 0CFE00F3#0038202701270727
(1741076402.303886) can0 0CFE00F3#0038182710271127
(1741076402.767745) can0 0CFE00F3#003812270F270E27
(1741076400.542807) can0 0CFE00F3#00381D2702271027
(1741076401.417775) can0 0CFE00F3#00381A2709270F27
(1741076402.796325) can0 18FF0120#F0FFFF3FFFFFFFFC
(1741076402.832746) can0 0CFE00F3#00381F2713270C27
(1741076399.982944) can0 0CFE05F3#CDFEF90039021027
(1741076403.416084) can0 0CFE00F3#00381A2703270727
(1741076402.173766) can0 0CFE00F3#00381E2707270F27
(1741076400.423806) can0 0CFE00F3#00381B2706270D27
(1741076400.040036) can0 18FE0300#09270E2718270000
(1741076401.526141) can0 0CFE00F3#00381F270E270B27
(1741076400.240802) can0 0CFE00F3#003822270E270D27
(1741076401.475080) can0 18FE0300#0C270B2719270000
(1741076400.846161) can0 0CFE00F3#00381D2707270627
(1741076401.568774) can0 0CFE00F3#0038242707271727
(1741076400.359934) can0 0CFE00F3#00381F2704270F27
(1741076400.165033) can0 0CFE00F3#00381C2708271027
(1741076402.271123) can0 0CFE00F3#0038182708270D27
(1741076401.137187) can0 0CFE00F3#0038152702270327
(1741076400.065629) can0 18FE0300#0B270F2718270000
(1741076402.119763) can0 0CFE00F3#003815270A271127
(1741076400.186155) can0 18FE0300#0C270D2719270000
(1741076403.534918) can0 0CFE00F3#0038192707270527
(1741076402.197235) can0 0CFE05F3#FDFD6E0119011027
(1741076403.506716) can0 18FE0300#0B27082718270000
(1741076401.332053) can0 0CFE00F3#00381C270C270927
(1741076401.072319) can0 0CFE00F3#00381A2710270A27
(1741076403.556086) can0 0CFE00F3#00381C270D270627
(1741076403.225006) can0 18FF1700#00000000C7006411
(1741076400.197825) can0 0CFE00F3#0038232708270627
(1741076402.000776) can0 0CFE00F3#0038192700270827
(1741076401.104995) can0 0CFE00F3#00381C2710270A27
(1741076402.573770) can0 0CFE00F3#0038162708270227
(1741076400.086164) can0 18FE0300#0C270E2718270000
(1741076403.750747) can0 0CFE00F3#003821270D270C27
(1741076400.975052) can0 0CFE00F3#003822270B271127
(1741076403.276104) can0 0CFE00F3#003817270C270D27
(1741076401.213159) can0 0CFE00F3#00381C270A271527
(1741076400.435047) can0 0CFE00F3#003818270A271227
(1741076404.237098) can0 0CFE00F3#00381E2712270927
(1741076402.645567) can0 18FE0300#08270E2719270000
(1741076400.391807) can0 0CFE00F3#00381F2706270A27
(1741076400.207901) can0 0CFE00F3#00381F2709270C27
(1741076399.991814) can0 0CFE00F3#0038192708270D27
(1741076400.348797) can0 0CFE00F3#003816270D270A27
(1741076400.812826) can0 0CFE00F3#003817270D270D27
(1741076401.212616) can0 18FF2201#312E30342E303031
(1741076401.836615) can0 18FE0300#0C27062715270000
(1741076404.107199) can0 0CFE00F3#0038152708270A27
(1741076400.230201) can0 0CFE00F3#00381B270D271127
(1741076400.136735) can0 18FE0300#0D270D2718270000
(1741076400.295070) can0 0CFE00F3#0038172703270F27
(1741076401.441568) can0 0CFE09F3#6A03C4096E063318
(1741076401.676770) can0 0CFE00F3#0038162706270D27
(1741076401.050797) can0 0CFE00F3#00381A270C270027
(1741076400.056801) can0 0CFE00F3#0038192711270F27
(1741076402.594933) can0 0CFE00F3#00381F2711270A27
(1741076400.306189) can0 0CFE00F3#0038192703270E27
(1741076403.026738) can0 0CFE00F3#003819270D270B27
(1741076400.316234) can0 0CFE00F3#003812270A270C27
(1741076401.730775) can0 0CFE00F3#0038142701270A27
(1741076403.059756) can0 0CFE00F3#003819270A271227
(1741076402.336097) can0 0CFE00F3#003816270B270A27
(1741076400.616242) can0 18FE0300#0C27052717270000
(1741076401.309780) can0 0CFE00F3#00381F270D270D27
(1741076400.683815) can0 0CFE00F3#003819270C270B27
(1741076400.607901) can0 0CFE00F3#0038222706270727
(1741076402.281758) can0 0CFE00F3#0038152713271227
(1741076400.650801) can0 0CFE00F3#00381F270C270D27
(1741076400.446174) can0 0CFE00F3#00381A27FF261127
(1741076403.049860) can0 18FF2701#0000007908023033
(1741076401.277790) can0 0CFE00F3#00381B2708270C27
(1741076401.298773) can0 0CFE00F3#003819270E271427
(1741076402.551750) can0 0CFE00F3#00381A2709271327
(1741076401.407283) can0 0CFE00F3#003817270C270B27
(1741076401.428775) can0 0CFE00F3#003825270D271127
(1741076402.443751) can0 0CFE00F3#003812270A270927
(1741076401.439913) can0 0CFE00F3#0038162704270627
(1741076404.129286) can0 0CFE00F3#0038222709270627
(1741076401.709789) can0 0CFE00F3#00381C2706271327
(1741076403.739729) can0 0CFE00F3#0038192705270427
(1741076401.946775) can0 0CFE00F3#00381F2706271427
(1741076401.471928) can0 0CFE00F3#003819270E270527
(1741076402.497758) can0 0CFE00F3#003811270C270D27
(1741076401.494922) can0 0CFE05F3#F6FEAD00CB021027
(1741076402.145640) can0 18FE0300#0C27082716270000
(1741076402.536584) can0 18FE0300#0B270E2715270000
(1741076401.537175) can0 0CFE00F3#00381E2706270727
(1741076401.547792) can0 0CFE00F3#00381E2706270C27
(1741076400.225041) can0 18FFA100#51500A0C00005220
(1741076404.020726) can0 0CFE00F3#00381B2708270727
(1741076401.557772) can0 0CFE00F3#00381B2706270E27
(1741076402.055000) can0 0CFE00F3#00380F2701271427
(1741076402.965585) can0 18FE0300#0B270B2716270000
(1741076401.590780) can0 0CFE00F3#00381A2702271427
(1741076402.056115) can0 18FE0300#0D27072716270000
(1741076401.341784) can0 0CFE00F3#00381D270C270127
(1741076401.595596) can0 18FE0300#0D2709271A270000
(1741076401.936134) can0 0CFE00F3#00381A2700270A27
(1741076401.612044) can0 0CFE00F3#0038182706270F27
(1741076401.968761) can0 0CFE00F3#0038172709271527
(1741076401.622782) can0 0CFE00F3#0038142706270F27
(1741076401.656144) can0 0CFE00F3#0038172706270A27
(1741076401.719763) can0 0CFE00F3#003819270F270F27
(1741076403.761738) can0 0CFE00F3#00381E270A27FD26
(1741076401.741778) can0 0CFE00F3#0038172700270927
(1741076401.763788) can0 0CFE00F3#0038162714270A27
(1741076401.765450) can0 0CFE09F3#6D03C4096D063318
(1741076403.620739) can0 0CFE00F3#0038182709270727
(1741076402.918748) can0 0CFE00F3#0038182711270927
(1741076401.773772) can0 0CFE00F3#00381C2706270D27
(1741076401.039790) can0 0CFE00F3#00381B270A271427
(1741076400.780788) can0 0CFE00F3#00381A270B271027
(1741076402.476124) can0 0CFE00F3#003818270E270D27
(1741076402.702740) can0 0CFE00F3#003816270F270C27
(1741076401.817789) can0 0CFE00F3#0038122703270D27
(1741076402.305558) can0 0CFE09F3#6903C4096F063318
(1741076401.827769) can0 0CFE00F3#0038132704270A27
(1741076401.838770) can0 0CFE00F3#00381A2708270727
(1741076400.273120) can0 0CFE00F3#0038142703270D27
(1741076401.796140) can0 0CFE00F3#00381C2707270F27
(1741076401.886143) can0 18FE0300#0C27052715270000
(1741076401.875865) can0 18FE0300#0C27052716270000
(1741076403.089760) can0 18FF2701#0000007906033033
(1741076401.881775) can0 0CFE00F3#0038102701270A27
(1741076402.006734) can0 18FE0300#0D27052718270000
(1741076401.895072) can0 18FE0300#0C27042714270000
(1741076400.121803) can0 0CFE00F3#00381F2709271427
(1741076401.903781) can0 0CFE00F3#00381F27FF260A27
(1741076401.915044) can0 0CFE00F3#00381C27FA261327
(1741076401.925588) can0 18FE0300#0D27032716270000
(1741076401.937717) can0 18FE0300#0E27032716270000
(1741076401.955024) can0 18FE0300#0E27032717270000
(1741076401.957761) can0 0CFE00F3#00381B2709270627
(1741076401.965583) can0 18FE0300#0D27042717270000
(1741076399.986231) can0 18FE0300#0A270E2719270000
(1741076401.975008) can0 18FE0300#0E27042717270000
(1741076400.565017) can0 0CFE00F3#003812270D270927
(1741076401.995020) can0 18FE0300#0E27052718270000
(1741076400.931796) can0 0CFE00F3#003817270A270E27
(1741076402.025632) can0 18FE0300#0E27052716270000
(1741076400.495083) can0 18FE0300#0E27072716270000
(1741076402.033765) can0 0CFE00F3#0038172709270D27
(1741076402.043757) can0 0CFE00F3#0038172709270127
(1741076402.411776) can0 0CFE00F3#00381C2712270527
(1741076401.565590) can0 18FE0300#0B270A271A270000
(1741076402.637757) can0 0CFE00F3#003826270E270427
(1741076402.086116) can0 18FE0300#0D27062714270000
(1741076403.383869) can0 0CFE00F3#0038192708270727
(1741076402.087889) can0 0CFE00F3#00381F2709270A27
(1741076400.176226) can0 0CFE00F3#0038182710271027
(1741076402.089571) can0 0CFE09F3#6A03C4096D063318
(1741076402.421766) can0 0CFE00F3#0038222710270B27
(1741076403.091743) can0 0CFE00F3#0038142710270527
(1741076401.355088) can0 18FE0300#08270C2719270000
(1741076402.365570) can0 18FE0300#0D270D2714270000
(1741076402.097756) can0 0CFE00F3#0038152709270927
(1741076403.167867) can0 0CFE00F3#0038182706271127
(1741076402.736086) can0 0CFE00F3#00380F270F270A27
(1741076402.109028) can0 0CFE00F3#00381C2703270D27
(1741076402.778752) can0 0CFE00F3#0038192702271027
(1741076402.131262) can0 0CFE00F3#003816270A270827
(1741076403.782726) can0 0CFE00F3#0038112704271227
(1741076402.789766) can0 0CFE00F3#00381B27F9260E27
(1741076402.151780) can0 0CFE00F3#00381C2710270E27
(1741076400.716193) can0 0CFE00F3#0038162703270D27
(1741076402.162773) can0 0CFE00F3#0038162706271827
(1741076402.175468) can0 18FE0300#0E27092716270000
(1741076402.540761) can0 0CFE00F3#00381C2709270927
(1741076400.618801) can0 0CFE00F3#0038132706271327
(1741076402.206130) can0 0CFE00F3#0038172707270E27
(1741076401.860773) can0 0CFE00F3#00381B2703270F27
(1741076402.238760) can0 0CFE00F3#003819270F270927
(1741076400.499799) can0 0CFE00F3#00381C2703270827
(1741076400.553801) can0 0CFE00F3#00381F2703270A27
(1741076402.249776) can0 0CFE00F3#0038152705270C27
(1741076403.074981) can0 18FE0300#0C27082715270000
(1741076402.375006) can0 18FE0300#0D270B2715270000
(1741076402.259752) can0 0CFE00F3#0038182713271227
(1741076403.663735) can0 0CFE00F3#00380F2705271327
(1741076403.458740) can0 0CFE00F3#00381F2706270127
(1741076401.375003) can0 0CFE00F3#0038232702270E27
(1741076402.286134) can0 18FE0300#0E270C2716270000
(1741076402.292762) can0 0CFE00F3#003811270D270527
(1741076401.503780) can0 0CFE00F3#00381B2708270B27
(1741076402.295052) can0 18FE0300#0E270D2716270000
(1741076402.724938) can0 0CFE00F3#00381B2705270A27
(1741076402.313754) can0 0CFE00F3#0038122706270627
(1741076402.347242) can0 0CFE00F3#00381B2714271527
(1741076402.606123) can0 0CFE00F3#0038172713270727
(1741076402.350496) can0 18FF2701#0000037929033031
(1741076402.367773) can0 0CFE00F3#00381C27FF260C27
(1741076402.386099) can0 18FE0300#0C270C2714270000
(1741076402.389758) can0 0CFE00F3#0038162706270A27
(1741076402.395004) can0 18FE0300#0C270B2714270000
(1741076403.566729) can0 0CFE00F3#0038192711271127
(1741076402.969874) can0 18FF2701#000000790E023033
(1741076402.075018) can0 18FE0300#0E27062715270000
(1741076402.413448) can0 0CFE09F3#6C03C4096E063318
(1741076400.355089) can0 18FE0300#0D270B2716270000
(1741076402.432756) can0 0CFE00F3#003814270D270727
(1741076402.217263) can0 0CFE00F3#00381B270B270827
(1741076402.446025) can0 18FE0300#0B270D2717270000
(1741076402.887197) can0 0CFE00F3#003818270F270D27
(1741076402.454979) can0 0CFE00F3#003819270E270D27
(1741076403.296738) can0 0CFE00F3#0038212703270727
(1741076402.487223) can0 0CFE00F3#0038182706270927
(1741076402.989863) can0 18FF2701#0000007A0E023033
(1741076402.506715) can0 18FE0300#0B270D2715270000
(1741076402.519878) can0 0CFE00F3#0038112711271127
(1741076402.529765) can0 0CFE00F3#00381F2710270627
(1741076403.109990) can0 18FF2701#0000007905023033
(1741076402.670747) can0 0CFE00F3#00381A2709270727
(1741076402.583783) can0 0CFE00F3#00381C270D270527
(1741076402.617254) can0 0CFE00F3#003819270A270427
(1741076402.607234) can0 18FE0300#0B270E2717270000
(1741076402.627781) can0 0CFE00F3#00381E2708270027
(1741076400.143926) can0 0CFE00F3#00381C270D270D27
(1741076402.648759) can0 0CFE00F3#00381C2705270E27
(1741076401.266775) can0 0CFE00F3#0038172702270B27
(1741076402.681756) can0 0CFE00F3#00381D270E270D27
(1741076402.713747) can0 0CFE00F3#0038152710270327
(1741076402.726075) can0 18FF0800#400000A028000F79
(1741076402.746098) can0 0CFE00F3#0038122710271127
(1741076403.512733) can0 0CFE00F3#0038182706270E27
(1741076402.951878) can0 0CFE00F3#0038162709270A27
(1741076402.756742) can0 0CFE00F3#0038172707271127
(1741076403.837108) can0 0CFE00F3#0038192707270927
(1741076402.799744) can0 0CFE00F3#00381C270F270927
(1741076404.196031) can0 18FE0300#0A270B2717270000
(1741076402.810825) can0 0CFE00F3#003819270F270D27
(1741076401.926136) can0 0CFE00F3#00381D2703271727
(1741076402.843764) can0 0CFE00F3#0038192710270A27
(1741076402.850014) can0 18FF2701#000004792B023033
(1741076402.853739) can0 0CFE00F3#003819270E270C27
(1741076402.907815) can0 0CFE00F3#0038192708271227
(1741076402.869995) can0 18FF2701#000002792B023033
(1741076402.876093) can0 0CFE00F3#0038132709271527
(1741076402.889966) can0 18FF2701#0000017920023033
(1741076402.897766) can0 0CFE00F3#0038152706270127
(1741076401.846145) can0 18FE0300#0B27062715270000
(1741076402.929748) can0 0CFE00F3#0038102704270B27
(1741076402.940748) can0 0CFE00F3#00381A270C270627
(1741076402.949895) can0 18FF2701#0000007913023033
(1741076402.953550) can0 0CFE09F3#7003C4096F063318
(1741076402.961750) can0 0CFE00F3#00381B2703270827
(1741076402.972749) can0 0CFE00F3#0038182706270827
(1741076404.290708) can0 0CFE00F3#00381B2707270C27
